
SetupTitle, CVSweep4284_a
ApplicationTest, CVSweep4284_a, Public
TestParameter, Name, Address, Osc_Level, Frequency, Integ_Time, Vstart, Vstop, Sweep_Pts, Cmax, Delay_Time, Hold_Time, Real_Time_Display
TestParameter, Value, 18, 0.02, 100000, 2, -5, 0, 26, 4.9999999999999995E-11, 0, 0, 1
MetaData, TestRecord.EntryPoint, true
MetaData, TestRecord.RecordTime, 04/08/2025 12:15:56
MetaData, TestRecord.TestTarget, 
MetaData, TestRecord.IterationIndex, 8
MetaData, TestRecord.Preservation, true
MetaData, TestRecord.Flag, 
MetaData, TestRecord.Remarks, 5 LIGHT OFF
MetaData, TestRecord.LinkKey, 46d88fe3-166c-439b-9c4e-334a7db8e06a
Dimension1, 26, 26, 26
Dimension2, 1, 1, 1
DataName, Vsweep, Cdata, Dispersion
DataValue, -5, 4.55031E-11, 0.000821438
DataValue, -4.8, 4.54978E-11, 0.000810121
DataValue, -4.6, 4.54988E-11, 0.000850042
DataValue, -4.4, 4.5499E-11, 0.000800951
DataValue, -4.2, 4.55008E-11, 0.000785782
DataValue, -4, 4.55E-11, 0.000871749
DataValue, -3.8, 4.55002E-11, 0.000869715
DataValue, -3.5999999999999996, 4.55003E-11, 0.000891894
DataValue, -3.4, 4.55021E-11, 0.000891647
DataValue, -3.2, 4.55009E-11, 0.000881454
DataValue, -3, 4.54976E-11, 0.000913194
DataValue, -2.8, 4.5497E-11, 0.000925323
DataValue, -2.5999999999999996, 4.5495E-11, 0.000983509
DataValue, -2.4, 4.54957E-11, 0.00097563
DataValue, -2.1999999999999997, 4.54931E-11, 0.000923392
DataValue, -2, 4.54918E-11, 0.00102269
DataValue, -1.7999999999999998, 4.54898E-11, 0.000979856
DataValue, -1.5999999999999996, 4.54866E-11, 0.000946898
DataValue, -1.4, 4.54875E-11, 0.000969043
DataValue, -1.1999999999999997, 4.54864E-11, 0.000969309
DataValue, -1, 4.54814E-11, 0.000988823
DataValue, -0.79999999999999982, 4.54783E-11, 0.000947992
DataValue, -0.59999999999999964, 4.54786E-11, 0.000922919
DataValue, -0.39999999999999947, 4.5473E-11, 0.000936239
DataValue, -0.19999999999999929, 4.54746E-11, 0.000961568
DataValue, 0, 4.54691E-11, 0.000858769