
SetupTitle, I/V Sweep
PrimitiveTest, I/V Sweep
TestParameter, Context.MainFrame, 4155B
TestParameter, Channel.UnitType, SMU, SMU
TestParameter, Channel.Unit, SMU2:MP, SMU4:MP
TestParameter, Channel.IName, I1, I2
TestParameter, Channel.VName, V1, V2
TestParameter, Channel.Mode, V, V
TestParameter, Channel.Func, VAR1, CONST
TestParameter, Channel.Index, 
TestParameter, Channel.Time, 
TestParameter, Measurement.Port.Unit, SMU2:MP, SMU4:MP
TestParameter, Measurement.Port.SeriesResistor, NONE, NONE
TestParameter, Measurement.Port.Filter, ON, ON
TestParameter, Measurement.Primary.Locus, Single
TestParameter, Measurement.Primary.Scale, LINEAR
TestParameter, Measurement.Primary.Start, -40
TestParameter, Measurement.Primary.Stop, 40
TestParameter, Measurement.Primary.Step, 0.8
TestParameter, Measurement.Primary.Compliance, 0.05
TestParameter, Measurement.Primary.PowerCompliance, 0
TestParameter, Measurement.Aborting.Condition, CONTINUE AT ANY
TestParameter, Measurement.PostOutput.Value, START
TestParameter, Measurement.PostOutput.Retention, OFF
TestParameter, Measurement.Bias.Source, -40, 0
TestParameter, Measurement.Bias.Compliance, 0.05, 0.05
TestParameter, Measurement.Monitor.Unit, SMU4:MP, SMU2:MP
TestParameter, Measurement.Monitor.Adc, HR ADC, HR ADC
TestParameter, Measurement.Monitor.RangingMode, LIMITED, LIMITED
TestParameter, Measurement.Monitor.RangeBoundary, 1nA, 1nA
TestParameter, Measurement.Monitor.RangeRating, BY FULL RANGE, BY FULL RANGE
TestParameter, Measurement.Monitor.RangeRatingCoeff, 50, 50
TestParameter, Measurement.Timing.Hold, 0
TestParameter, Measurement.Timing.Delay, 0
TestParameter, Measurement.Adc.HighResolution.AutoZero, OFF
TestParameter, Measurement.Adc.HighResolution.Mode, AUTO
TestParameter, Measurement.Adc.HighResolution.Coeff, 1
TestParameter, Measurement.Ag16440ASelector.SemiconductorRelay.Channel1, DEFAULT
TestParameter, Measurement.Ag16440ASelector.SemiconductorRelay.Channel3, DEFAULT
TestParameter, Output.Graph.Enabled, true
TestParameter, Output.Graph.XAxis.Data, V1
TestParameter, Output.Graph.XAxis.Scale, Linear
TestParameter, Output.Graph.XAxis.Left, -40
TestParameter, Output.Graph.XAxis.Right, 40
TestParameter, Output.Graph.YAxis.Data, I1
TestParameter, Output.Graph.YAxis.Scale, Linear
TestParameter, Output.Graph.YAxis.Bottom, -0.1
TestParameter, Output.Graph.YAxis.Top, 0.1
TestParameter, Output.Graph.YAxis.Group, 
TestParameter, AutoAnalysis.Interpolation, false
TestParameter, AutoAnalysis.Line1.Enabled, false
TestParameter, AutoAnalysis.Line1.Type, 1
TestParameter, AutoAnalysis.Line1.Fix, True
TestParameter, AutoAnalysis.Line1.YAxis, 0
TestParameter, AutoAnalysis.Line1.Point1.Type, 0
TestParameter, AutoAnalysis.Line1.Point1.XY.X, 
TestParameter, AutoAnalysis.Line1.Point1.XY.Y, 
TestParameter, AutoAnalysis.Line1.Point1.Data.Var, 
TestParameter, AutoAnalysis.Line1.Point1.Data.Condition, 
TestParameter, AutoAnalysis.Line1.Point1.Data.Start, false
TestParameter, AutoAnalysis.Line1.Point1.Data.StartVar, 
TestParameter, AutoAnalysis.Line1.Point1.Data.StartCondition, 
TestParameter, AutoAnalysis.Line1.Point2.Type, 0
TestParameter, AutoAnalysis.Line1.Point2.XY.X, 
TestParameter, AutoAnalysis.Line1.Point2.XY.Y, 
TestParameter, AutoAnalysis.Line1.Point2.Data.Var, 
TestParameter, AutoAnalysis.Line1.Point2.Data.Condition, 
TestParameter, AutoAnalysis.Line1.Point2.Data.Start, false
TestParameter, AutoAnalysis.Line1.Point2.Data.StartVar, 
TestParameter, AutoAnalysis.Line1.Point2.Data.StartCondition, 
TestParameter, AutoAnalysis.Line1.GradientExpr, 0
TestParameter, AutoAnalysis.Line2.Enabled, false
TestParameter, AutoAnalysis.Line2.Type, 1
TestParameter, AutoAnalysis.Line2.Fix, True
TestParameter, AutoAnalysis.Line2.YAxis, 0
TestParameter, AutoAnalysis.Line2.Point1.Type, 0
TestParameter, AutoAnalysis.Line2.Point1.XY.X, 
TestParameter, AutoAnalysis.Line2.Point1.XY.Y, 
TestParameter, AutoAnalysis.Line2.Point1.Data.Var, 
TestParameter, AutoAnalysis.Line2.Point1.Data.Condition, 
TestParameter, AutoAnalysis.Line2.Point1.Data.Start, false
TestParameter, AutoAnalysis.Line2.Point1.Data.StartVar, 
TestParameter, AutoAnalysis.Line2.Point1.Data.StartCondition, 
TestParameter, AutoAnalysis.Line2.Point2.Type, 0
TestParameter, AutoAnalysis.Line2.Point2.XY.X, 
TestParameter, AutoAnalysis.Line2.Point2.XY.Y, 
TestParameter, AutoAnalysis.Line2.Point2.Data.Var, 
TestParameter, AutoAnalysis.Line2.Point2.Data.Condition, 
TestParameter, AutoAnalysis.Line2.Point2.Data.Start, false
TestParameter, AutoAnalysis.Line2.Point2.Data.StartVar, 
TestParameter, AutoAnalysis.Line2.Point2.Data.StartCondition, 
TestParameter, AutoAnalysis.Line2.GradientExpr, 0
TestParameter, AutoAnalysis.Marker.Enabled, false
TestParameter, AutoAnalysis.Marker.Data.Var, 
TestParameter, AutoAnalysis.Marker.Data.Condition, 
TestParameter, AutoAnalysis.Marker.Data.Start, false
TestParameter, AutoAnalysis.Marker.Data.StartVar, 
TestParameter, AutoAnalysis.Marker.Data.StartCondition, 
MetaData, TestRecord.EntryPoint, true
MetaData, TestRecord.RecordTime, 04/01/2025 11:13:52
MetaData, TestRecord.TestTarget, 
MetaData, TestRecord.IterationIndex, 26
MetaData, TestRecord.Preservation, true
MetaData, TestRecord.Flag, 
MetaData, TestRecord.Remarks, 7 diode 0bias
MetaData, TestRecord.LinkKey, ba8f5bc5-621e-407c-8889-15e88e145eba
Dimension1, 101, 101
Dimension2, 1, 1
DataName, V1, I1
DataValue, -40, -0.0500009
DataValue, -39.2, -0.050001000000000004
DataValue, -38.4, -0.0500007
DataValue, -37.6, -0.0500009
DataValue, -36.800000000000004, -0.050000800000000005
DataValue, -36, -0.0500009
DataValue, -35.2, -0.050000800000000005
DataValue, -34.4, -0.050000800000000005
DataValue, -33.6, -0.050000800000000005
DataValue, -32.8, -0.050000800000000005
DataValue, -32, -0.0500009
DataValue, -31.2, -0.050000800000000005
DataValue, -30.400000000000002, -0.050000800000000005
DataValue, -29.6, -0.050000800000000005
DataValue, -28.8, -0.0500007
DataValue, -28, -0.050000800000000005
DataValue, -27.2, -0.0500009
DataValue, -26.400000000000002, -0.0500009
DataValue, -25.6, -0.050000800000000005
DataValue, -24.8, -0.0500007
DataValue, -24, -0.050000800000000005
DataValue, -23.2, -0.050000800000000005
DataValue, -22.400000000000002, -0.0500007
DataValue, -21.6, -0.050000800000000005
DataValue, -20.8, -0.0500007
DataValue, -20, -0.050000800000000005
DataValue, -19.2, -0.050000800000000005
DataValue, -18.400000000000002, -0.050000800000000005
DataValue, -17.6, -0.0500007
DataValue, -16.8, -0.0500009
DataValue, -16, -0.050000800000000005
DataValue, -15.200000000000001, -0.050000800000000005
DataValue, -14.4, -0.0500009
DataValue, -13.6, -0.050000800000000005
DataValue, -12.8, -0.0500007
DataValue, -12, -0.0491663
DataValue, -11.200000000000001, -0.045306900000000004
DataValue, -10.4, -0.041475300000000007
DataValue, -9.6, -0.037686000000000004
DataValue, -8.8, -0.033934700000000005
DataValue, -8, -0.030213200000000003
DataValue, -7.2, -0.0265411
DataValue, -6.4, -0.0229173
DataValue, -5.6000000000000005, -0.0193433
DataValue, -4.8, -0.0158409
DataValue, -4, -0.012413800000000001
DataValue, -3.2, -0.009073040000000001
DataValue, -2.4, -0.00586195
DataValue, -1.6, -0.00285245
DataValue, -0.8, -0.000378692
DataValue, 0, 6.73106E-10
DataValue, 0.8, 7.1226000000000008E-10
DataValue, 1.6, 7.70447E-10
DataValue, 2.4, 8.3795300000000012E-10
DataValue, 3.2, 9.2404E-10
DataValue, 4, 1.00895E-09
DataValue, 4.8, 1.04243E-09
DataValue, 5.6000000000000005, 1.07937E-09
DataValue, 6.4, 1.12087E-09
DataValue, 7.2, 1.16641E-09
DataValue, 8, 1.21474E-09
DataValue, 8.8, 1.26594E-09
DataValue, 9.6, 1.32064E-09
DataValue, 10.4, 1.37828E-09
DataValue, 11.200000000000001, 1.44175E-09
DataValue, 12, 1.50978E-09
DataValue, 12.8, 1.57994E-09
DataValue, 13.6, 1.65213E-09
DataValue, 14.4, 1.72527E-09
DataValue, 15.200000000000001, 1.80177E-09
DataValue, 16, 1.88193E-09
DataValue, 16.8, 1.9642E-09
DataValue, 17.6, 2.04752E-09
DataValue, 18.400000000000002, 2.13468E-09
DataValue, 19.2, 2.22257E-09
DataValue, 20, 2.31225E-09
DataValue, 20.8, 2.40581E-09
DataValue, 21.6, 2.50424E-09
DataValue, 22.400000000000002, 2.60908E-09
DataValue, 23.2, 2.72265E-09
DataValue, 24, 2.84262E-09
DataValue, 24.8, 2.97174E-09
DataValue, 25.6, 3.11303E-09
DataValue, 26.400000000000002, 3.27E-09
DataValue, 27.2, 3.54575E-09
DataValue, 28, 7.81466E-09
DataValue, 28.8, 1.85734E-08
DataValue, 29.6, 5.0141899999999995E-08
DataValue, 30.400000000000002, 1.5496499999999999E-07
DataValue, 31.2, 3.08116E-07
DataValue, 32, 6.75855E-07
DataValue, 32.8, 1.5989900000000002E-06
DataValue, 33.6, 2.73049E-06
DataValue, 34.4, 4.8598300000000009E-06
DataValue, 35.2, 9.5967E-06
DataValue, 36, 3.0877400000000004E-05
DataValue, 36.800000000000004, 5.31671E-05
DataValue, 37.6, 7.59754E-05
DataValue, 38.4, 7.99861E-05
DataValue, 39.2, 0.00010914400000000001
DataValue, 40, 0.000161065