
SetupTitle, I/V Sweep
PrimitiveTest, I/V Sweep
TestParameter, Context.MainFrame, 4155B
TestParameter, Channel.UnitType, SMU, SMU
TestParameter, Channel.Unit, SMU2:MP, SMU4:MP
TestParameter, Channel.IName, I1, I2
TestParameter, Channel.VName, V1, V2
TestParameter, Channel.Mode, V, V
TestParameter, Channel.Func, VAR1, CONST
TestParameter, Channel.Index, 
TestParameter, Channel.Time, 
TestParameter, Measurement.Port.Unit, SMU2:MP, SMU4:MP
TestParameter, Measurement.Port.SeriesResistor, NONE, NONE
TestParameter, Measurement.Port.Filter, ON, ON
TestParameter, Measurement.Primary.Locus, Single
TestParameter, Measurement.Primary.Scale, LINEAR
TestParameter, Measurement.Primary.Start, -40
TestParameter, Measurement.Primary.Stop, 40
TestParameter, Measurement.Primary.Step, 0.8
TestParameter, Measurement.Primary.Compliance, 0.05
TestParameter, Measurement.Primary.PowerCompliance, 0
TestParameter, Measurement.Aborting.Condition, CONTINUE AT ANY
TestParameter, Measurement.PostOutput.Value, START
TestParameter, Measurement.PostOutput.Retention, OFF
TestParameter, Measurement.Bias.Source, -40, -40
TestParameter, Measurement.Bias.Compliance, 0.05, 0.05
TestParameter, Measurement.Monitor.Unit, SMU4:MP, SMU2:MP
TestParameter, Measurement.Monitor.Adc, HR ADC, HR ADC
TestParameter, Measurement.Monitor.RangingMode, LIMITED, LIMITED
TestParameter, Measurement.Monitor.RangeBoundary, 1nA, 1nA
TestParameter, Measurement.Monitor.RangeRating, BY FULL RANGE, BY FULL RANGE
TestParameter, Measurement.Monitor.RangeRatingCoeff, 50, 50
TestParameter, Measurement.Timing.Hold, 0
TestParameter, Measurement.Timing.Delay, 0
TestParameter, Measurement.Adc.HighResolution.AutoZero, OFF
TestParameter, Measurement.Adc.HighResolution.Mode, AUTO
TestParameter, Measurement.Adc.HighResolution.Coeff, 1
TestParameter, Measurement.Ag16440ASelector.SemiconductorRelay.Channel1, DEFAULT
TestParameter, Measurement.Ag16440ASelector.SemiconductorRelay.Channel3, DEFAULT
TestParameter, Output.Graph.Enabled, true
TestParameter, Output.Graph.XAxis.Data, V1
TestParameter, Output.Graph.XAxis.Scale, Linear
TestParameter, Output.Graph.XAxis.Left, -40
TestParameter, Output.Graph.XAxis.Right, 40
TestParameter, Output.Graph.YAxis.Data, I1
TestParameter, Output.Graph.YAxis.Scale, Linear
TestParameter, Output.Graph.YAxis.Bottom, -0.1
TestParameter, Output.Graph.YAxis.Top, 0.1
TestParameter, Output.Graph.YAxis.Group, 
TestParameter, AutoAnalysis.Interpolation, false
TestParameter, AutoAnalysis.Line1.Enabled, false
TestParameter, AutoAnalysis.Line1.Type, 1
TestParameter, AutoAnalysis.Line1.Fix, True
TestParameter, AutoAnalysis.Line1.YAxis, 0
TestParameter, AutoAnalysis.Line1.Point1.Type, 0
TestParameter, AutoAnalysis.Line1.Point1.XY.X, 
TestParameter, AutoAnalysis.Line1.Point1.XY.Y, 
TestParameter, AutoAnalysis.Line1.Point1.Data.Var, 
TestParameter, AutoAnalysis.Line1.Point1.Data.Condition, 
TestParameter, AutoAnalysis.Line1.Point1.Data.Start, false
TestParameter, AutoAnalysis.Line1.Point1.Data.StartVar, 
TestParameter, AutoAnalysis.Line1.Point1.Data.StartCondition, 
TestParameter, AutoAnalysis.Line1.Point2.Type, 0
TestParameter, AutoAnalysis.Line1.Point2.XY.X, 
TestParameter, AutoAnalysis.Line1.Point2.XY.Y, 
TestParameter, AutoAnalysis.Line1.Point2.Data.Var, 
TestParameter, AutoAnalysis.Line1.Point2.Data.Condition, 
TestParameter, AutoAnalysis.Line1.Point2.Data.Start, false
TestParameter, AutoAnalysis.Line1.Point2.Data.StartVar, 
TestParameter, AutoAnalysis.Line1.Point2.Data.StartCondition, 
TestParameter, AutoAnalysis.Line1.GradientExpr, 0
TestParameter, AutoAnalysis.Line2.Enabled, false
TestParameter, AutoAnalysis.Line2.Type, 1
TestParameter, AutoAnalysis.Line2.Fix, True
TestParameter, AutoAnalysis.Line2.YAxis, 0
TestParameter, AutoAnalysis.Line2.Point1.Type, 0
TestParameter, AutoAnalysis.Line2.Point1.XY.X, 
TestParameter, AutoAnalysis.Line2.Point1.XY.Y, 
TestParameter, AutoAnalysis.Line2.Point1.Data.Var, 
TestParameter, AutoAnalysis.Line2.Point1.Data.Condition, 
TestParameter, AutoAnalysis.Line2.Point1.Data.Start, false
TestParameter, AutoAnalysis.Line2.Point1.Data.StartVar, 
TestParameter, AutoAnalysis.Line2.Point1.Data.StartCondition, 
TestParameter, AutoAnalysis.Line2.Point2.Type, 0
TestParameter, AutoAnalysis.Line2.Point2.XY.X, 
TestParameter, AutoAnalysis.Line2.Point2.XY.Y, 
TestParameter, AutoAnalysis.Line2.Point2.Data.Var, 
TestParameter, AutoAnalysis.Line2.Point2.Data.Condition, 
TestParameter, AutoAnalysis.Line2.Point2.Data.Start, false
TestParameter, AutoAnalysis.Line2.Point2.Data.StartVar, 
TestParameter, AutoAnalysis.Line2.Point2.Data.StartCondition, 
TestParameter, AutoAnalysis.Line2.GradientExpr, 0
TestParameter, AutoAnalysis.Marker.Enabled, false
TestParameter, AutoAnalysis.Marker.Data.Var, 
TestParameter, AutoAnalysis.Marker.Data.Condition, 
TestParameter, AutoAnalysis.Marker.Data.Start, false
TestParameter, AutoAnalysis.Marker.Data.StartVar, 
TestParameter, AutoAnalysis.Marker.Data.StartCondition, 
MetaData, TestRecord.EntryPoint, true
MetaData, TestRecord.RecordTime, 04/01/2025 11:14:08
MetaData, TestRecord.TestTarget, 
MetaData, TestRecord.IterationIndex, 27
MetaData, TestRecord.Preservation, true
MetaData, TestRecord.Flag, 
MetaData, TestRecord.Remarks, 7 diode -40bias wobbly
MetaData, TestRecord.LinkKey, 651c1386-febd-4935-9717-5c2b756231ef
Dimension1, 101, 101
Dimension2, 1, 1
DataName, V1, I1
DataValue, -40, 1.03089E-08
DataValue, -39.2, 1.0394399999999999E-08
DataValue, -38.4, 1.04542E-08
DataValue, -37.6, 1.0517899999999998E-08
DataValue, -36.800000000000004, 1.05811E-08
DataValue, -36, 1.06411E-08
DataValue, -35.2, 1.0693299999999998E-08
DataValue, -34.4, 1.0738799999999999E-08
DataValue, -33.6, 1.0767799999999998E-08
DataValue, -32.8, 1.0785699999999998E-08
DataValue, -32, 1.0793099999999998E-08
DataValue, -31.2, 1.0792799999999999E-08
DataValue, -30.400000000000002, 1.0778199999999998E-08
DataValue, -29.6, 1.0761E-08
DataValue, -28.8, 1.0734799999999999E-08
DataValue, -28, 1.0702399999999999E-08
DataValue, -27.2, 1.06627E-08
DataValue, -26.400000000000002, 1.0624099999999999E-08
DataValue, -25.6, 1.05878E-08
DataValue, -24.8, 1.05662E-08
DataValue, -24, 1.05633E-08
DataValue, -23.2, 1.05808E-08
DataValue, -22.400000000000002, 1.0607299999999998E-08
DataValue, -21.6, 1.0641599999999999E-08
DataValue, -20.8, 1.0683699999999999E-08
DataValue, -20, 1.0732799999999998E-08
DataValue, -19.2, 1.0783999999999999E-08
DataValue, -18.400000000000002, 1.0844899999999998E-08
DataValue, -17.6, 1.0913099999999999E-08
DataValue, -16.8, 1.0987899999999998E-08
DataValue, -16, 1.10745E-08
DataValue, -15.200000000000001, 1.1167699999999998E-08
DataValue, -14.4, 1.12969E-08
DataValue, -13.6, 1.1445599999999999E-08
DataValue, -12.8, 1.1635E-08
DataValue, -12, 1.18372E-08
DataValue, -11.200000000000001, 1.20446E-08
DataValue, -10.4, 1.2255599999999999E-08
DataValue, -9.6, 1.24821E-08
DataValue, -8.8, 1.27029E-08
DataValue, -8, 1.2928399999999999E-08
DataValue, -7.2, 1.3171599999999999E-08
DataValue, -6.4, 1.3432099999999998E-08
DataValue, -5.6000000000000005, 1.3703399999999999E-08
DataValue, -4.8, 1.40003E-08
DataValue, -4, 1.4328099999999998E-08
DataValue, -3.2, 1.4721799999999999E-08
DataValue, -2.4, 1.5224799999999998E-08
DataValue, -1.6, 1.6033599999999998E-08
DataValue, -0.8, 2.19513E-08
DataValue, 0, 3.34971E-05
DataValue, 0.8, 9.53037E-05
DataValue, 1.6, 0.00017290800000000002
DataValue, 2.4, 0.00023225300000000003
DataValue, 3.2, 0.00029848200000000003
DataValue, 4, 0.000364565
DataValue, 4.8, 0.00043351200000000005
DataValue, 5.6000000000000005, 0.000503891
DataValue, 6.4, 0.000576392
DataValue, 7.2, 0.000652367
DataValue, 8, 0.00073181700000000006
DataValue, 8.8, 0.00081562600000000007
DataValue, 9.6, 0.000901086
DataValue, 10.4, 0.000990804
DataValue, 11.200000000000001, 0.0010851300000000001
DataValue, 12, 0.00119352
DataValue, 12.8, 0.00130512
DataValue, 13.6, 0.00144023
DataValue, 14.4, 0.00163252
DataValue, 15.200000000000001, 0.00159723
DataValue, 16, 0.00490189
DataValue, 16.8, 0.00156666
DataValue, 17.6, 0.00166171
DataValue, 18.400000000000002, 0.00152947
DataValue, 19.2, 0.0016408500000000001
DataValue, 20, 0.00147359
DataValue, 20.8, 0.0017988000000000001
DataValue, 21.6, 0.00127826
DataValue, 22.400000000000002, 0.0014733300000000001
DataValue, 23.2, 0.00165884
DataValue, 24, 0.00169961
DataValue, 24.8, 0.00178267
DataValue, 25.6, 0.00209096
DataValue, 26.400000000000002, 0.0045601
DataValue, 27.2, 0.0014186700000000001
DataValue, 28, 0.00170374
DataValue, 28.8, 0.00199728
DataValue, 29.6, 0.00180236
DataValue, 30.400000000000002, 0.00128377
DataValue, 31.2, 0.00145561
DataValue, 32, 0.00190664
DataValue, 32.8, 0.0011860000000000002
DataValue, 33.6, 0.00134299
DataValue, 34.4, 0.00159372
DataValue, 35.2, 0.00135783
DataValue, 36, 0.00188072
DataValue, 36.800000000000004, 0.049999200000000008
DataValue, 37.6, 0.0499978
DataValue, 38.4, 0.0499973
DataValue, 39.2, 0.0499973
DataValue, 40, 0.049997000000000007