
SetupTitle, I/V Sweep
PrimitiveTest, I/V Sweep
TestParameter, Context.MainFrame, 4155B
TestParameter, Channel.UnitType, SMU, SMU
TestParameter, Channel.Unit, SMU1:MP, SMU2:MP
TestParameter, Channel.IName, I1, I2
TestParameter, Channel.VName, V1, V2
TestParameter, Channel.Mode, V, COMMON
TestParameter, Channel.Func, VAR1, CONST
TestParameter, Channel.Index, 
TestParameter, Channel.Time, 
TestParameter, Measurement.Port.Unit, SMU1:MP, SMU2:MP
TestParameter, Measurement.Port.SeriesResistor, NONE, NONE
TestParameter, Measurement.Port.Filter, ON, ON
TestParameter, Measurement.Primary.Locus, Single
TestParameter, Measurement.Primary.Scale, LINEAR
TestParameter, Measurement.Primary.Start, -5
TestParameter, Measurement.Primary.Stop, 5
TestParameter, Measurement.Primary.Step, 0.1
TestParameter, Measurement.Primary.Compliance, 0.1
TestParameter, Measurement.Primary.PowerCompliance, 0
TestParameter, Measurement.Aborting.Condition, CONTINUE AT ANY
TestParameter, Measurement.PostOutput.Value, START
TestParameter, Measurement.PostOutput.Retention, OFF
TestParameter, Measurement.Bias.Source, -5, 0
TestParameter, Measurement.Bias.Compliance, 0.1, 0.1
TestParameter, Measurement.Monitor.Unit, SMU2:MP, SMU1:MP
TestParameter, Measurement.Monitor.Adc, HR ADC, HR ADC
TestParameter, Measurement.Monitor.RangingMode, LIMITED, LIMITED
TestParameter, Measurement.Monitor.RangeBoundary, 1nA, 1nA
TestParameter, Measurement.Monitor.RangeRating, BY FULL RANGE, BY FULL RANGE
TestParameter, Measurement.Monitor.RangeRatingCoeff, 50, 50
TestParameter, Measurement.Timing.Hold, 0
TestParameter, Measurement.Timing.Delay, 0
TestParameter, Measurement.Adc.HighResolution.AutoZero, OFF
TestParameter, Measurement.Adc.HighResolution.Mode, AUTO
TestParameter, Measurement.Adc.HighResolution.Coeff, 1
TestParameter, Measurement.Ag16440ASelector.SemiconductorRelay.Channel1, DEFAULT
TestParameter, Measurement.Ag16440ASelector.SemiconductorRelay.Channel3, DEFAULT
TestParameter, Output.Graph.Enabled, true
TestParameter, Output.Graph.XAxis.Data, V1
TestParameter, Output.Graph.XAxis.Scale, Linear
TestParameter, Output.Graph.XAxis.Left, -5
TestParameter, Output.Graph.XAxis.Right, 5
TestParameter, Output.Graph.YAxis.Data, I1
TestParameter, Output.Graph.YAxis.Scale, Linear
TestParameter, Output.Graph.YAxis.Bottom, -0.1
TestParameter, Output.Graph.YAxis.Top, 0.1
TestParameter, Output.Graph.YAxis.Group, 
TestParameter, AutoAnalysis.Interpolation, false
TestParameter, AutoAnalysis.Line1.Enabled, false
TestParameter, AutoAnalysis.Line1.Type, 1
TestParameter, AutoAnalysis.Line1.Fix, True
TestParameter, AutoAnalysis.Line1.YAxis, 0
TestParameter, AutoAnalysis.Line1.Point1.Type, 0
TestParameter, AutoAnalysis.Line1.Point1.XY.X, 
TestParameter, AutoAnalysis.Line1.Point1.XY.Y, 
TestParameter, AutoAnalysis.Line1.Point1.Data.Var, 
TestParameter, AutoAnalysis.Line1.Point1.Data.Condition, 
TestParameter, AutoAnalysis.Line1.Point1.Data.Start, false
TestParameter, AutoAnalysis.Line1.Point1.Data.StartVar, 
TestParameter, AutoAnalysis.Line1.Point1.Data.StartCondition, 
TestParameter, AutoAnalysis.Line1.Point2.Type, 0
TestParameter, AutoAnalysis.Line1.Point2.XY.X, 
TestParameter, AutoAnalysis.Line1.Point2.XY.Y, 
TestParameter, AutoAnalysis.Line1.Point2.Data.Var, 
TestParameter, AutoAnalysis.Line1.Point2.Data.Condition, 
TestParameter, AutoAnalysis.Line1.Point2.Data.Start, false
TestParameter, AutoAnalysis.Line1.Point2.Data.StartVar, 
TestParameter, AutoAnalysis.Line1.Point2.Data.StartCondition, 
TestParameter, AutoAnalysis.Line1.GradientExpr, 0
TestParameter, AutoAnalysis.Line2.Enabled, false
TestParameter, AutoAnalysis.Line2.Type, 1
TestParameter, AutoAnalysis.Line2.Fix, True
TestParameter, AutoAnalysis.Line2.YAxis, 0
TestParameter, AutoAnalysis.Line2.Point1.Type, 0
TestParameter, AutoAnalysis.Line2.Point1.XY.X, 
TestParameter, AutoAnalysis.Line2.Point1.XY.Y, 
TestParameter, AutoAnalysis.Line2.Point1.Data.Var, 
TestParameter, AutoAnalysis.Line2.Point1.Data.Condition, 
TestParameter, AutoAnalysis.Line2.Point1.Data.Start, false
TestParameter, AutoAnalysis.Line2.Point1.Data.StartVar, 
TestParameter, AutoAnalysis.Line2.Point1.Data.StartCondition, 
TestParameter, AutoAnalysis.Line2.Point2.Type, 0
TestParameter, AutoAnalysis.Line2.Point2.XY.X, 
TestParameter, AutoAnalysis.Line2.Point2.XY.Y, 
TestParameter, AutoAnalysis.Line2.Point2.Data.Var, 
TestParameter, AutoAnalysis.Line2.Point2.Data.Condition, 
TestParameter, AutoAnalysis.Line2.Point2.Data.Start, false
TestParameter, AutoAnalysis.Line2.Point2.Data.StartVar, 
TestParameter, AutoAnalysis.Line2.Point2.Data.StartCondition, 
TestParameter, AutoAnalysis.Line2.GradientExpr, 0
TestParameter, AutoAnalysis.Marker.Enabled, false
TestParameter, AutoAnalysis.Marker.Data.Var, 
TestParameter, AutoAnalysis.Marker.Data.Condition, 
TestParameter, AutoAnalysis.Marker.Data.Start, false
TestParameter, AutoAnalysis.Marker.Data.StartVar, 
TestParameter, AutoAnalysis.Marker.Data.StartCondition, 
MetaData, TestRecord.EntryPoint, true
MetaData, TestRecord.RecordTime, 04/01/2025 10:41:37
MetaData, TestRecord.TestTarget, 
MetaData, TestRecord.IterationIndex, 10
MetaData, TestRecord.Preservation, true
MetaData, TestRecord.Flag, 
MetaData, TestRecord.Remarks, 2D light off
MetaData, TestRecord.LinkKey, 96b31d05-2ea0-4093-9598-a82bf5fd9af0
Dimension1, 101, 101
Dimension2, 1, 1
DataName, V1, I1
DataValue, -5, -0.0352536
DataValue, -4.9, -0.0345501
DataValue, -4.8, -0.0338482
DataValue, -4.7, -0.0331475
DataValue, -4.6000000000000005, -0.0324481
DataValue, -4.5, -0.0317476
DataValue, -4.4, -0.031046800000000003
DataValue, -4.3, -0.030345900000000002
DataValue, -4.2, -0.029645400000000002
DataValue, -4.1, -0.028944400000000002
DataValue, -4, -0.028242500000000004
DataValue, -3.9, -0.027535600000000004
DataValue, -3.8000000000000003, -0.0268344
DataValue, -3.7, -0.0261322
DataValue, -3.6, -0.0254295
DataValue, -3.5, -0.0247266
DataValue, -3.4, -0.024024000000000004
DataValue, -3.3000000000000003, -0.0233204
DataValue, -3.2, -0.0226171
DataValue, -3.1, -0.021913300000000004
DataValue, -3, -0.021209600000000002
DataValue, -2.9, -0.020505100000000002
DataValue, -2.8000000000000003, -0.0198008
DataValue, -2.7, -0.0190963
DataValue, -2.6, -0.0183915
DataValue, -2.5, -0.017686
DataValue, -2.4, -0.016980600000000002
DataValue, -2.3000000000000003, -0.016275500000000002
DataValue, -2.2, -0.015570100000000002
DataValue, -2.1, -0.014863900000000001
DataValue, -2, -0.014157800000000002
DataValue, -1.9000000000000001, -0.013451600000000001
DataValue, -1.8, -0.012745300000000001
DataValue, -1.7000000000000002, -0.012038300000000002
DataValue, -1.6, -0.0113316
DataValue, -1.5, -0.010625800000000001
DataValue, -1.4000000000000001, -0.00991206
DataValue, -1.3, -0.00920467
DataValue, -1.2, -0.0084975
DataValue, -1.1, -0.0077850900000000006
DataValue, -1, -0.00707767
DataValue, -0.9, -0.0063698900000000004
DataValue, -0.8, -0.00566223
DataValue, -0.70000000000000007, -0.00495521
DataValue, -0.6, -0.00424752
DataValue, -0.5, -0.00353945
DataValue, -0.4, -0.00283145
DataValue, -0.3, -0.00212402
DataValue, -0.2, -0.0014155
DataValue, -0.1, -0.00070749700000000007
DataValue, 0, -4.7336100000000006E-06
DataValue, 0.1, 0.00070263000000000009
DataValue, 0.2, 0.00141051
DataValue, 0.3, 0.0021180500000000002
DataValue, 0.4, 0.0028309900000000002
DataValue, 0.5, 0.00353854
DataValue, 0.6, 0.0042466100000000005
DataValue, 0.70000000000000007, 0.00495415
DataValue, 0.8, 0.0056614000000000005
DataValue, 0.9, 0.00636866
DataValue, 1, 0.00707643
DataValue, 1.1, 0.00778376
DataValue, 1.2, 0.00849087
DataValue, 1.3, 0.00919794
DataValue, 1.4000000000000001, 0.00990555
DataValue, 1.5, 0.01061257
DataValue, 1.6, 0.01131732
DataValue, 1.7000000000000002, 0.0120183
DataValue, 1.8, 0.0127252
DataValue, 1.9000000000000001, 0.013431600000000002
DataValue, 2, 0.014137600000000002
DataValue, 2.1, 0.0148438
DataValue, 2.2, 0.015550200000000002
DataValue, 2.3000000000000003, 0.016256100000000002
DataValue, 2.4, 0.016961200000000003
DataValue, 2.5, 0.0176719
DataValue, 2.6, 0.0183775
DataValue, 2.7, 0.0190827
DataValue, 2.8000000000000003, 0.019787100000000002
DataValue, 2.9, 0.0204924
DataValue, 3, 0.021196800000000002
DataValue, 3.1, 0.021901
DataValue, 3.2, 0.022604600000000002
DataValue, 3.3000000000000003, 0.0233087
DataValue, 3.4, 0.024011900000000003
DataValue, 3.5, 0.024714800000000002
DataValue, 3.6, 0.025417400000000003
DataValue, 3.7, 0.0261205
DataValue, 3.8000000000000003, 0.0268227
DataValue, 3.9, 0.0275244
DataValue, 4, 0.028225700000000003
DataValue, 4.1, 0.028927400000000002
DataValue, 4.2, 0.0296281
DataValue, 4.3, 0.030328700000000004
DataValue, 4.4, 0.0310289
DataValue, 4.5, 0.031734500000000006
DataValue, 4.6000000000000005, 0.0324344
DataValue, 4.7, 0.033132400000000006
DataValue, 4.8, 0.033830900000000004
DataValue, 4.9, 0.034529500000000005
DataValue, 5, 0.035227600000000005