
SetupTitle, I/V Sweep
PrimitiveTest, I/V Sweep
TestParameter, Context.MainFrame, 4155B
TestParameter, Channel.UnitType, SMU, SMU
TestParameter, Channel.Unit, SMU1:MP, SMU2:MP
TestParameter, Channel.IName, I1, I2
TestParameter, Channel.VName, V1, V2
TestParameter, Channel.Mode, V, COMMON
TestParameter, Channel.Func, VAR1, CONST
TestParameter, Channel.Index, 
TestParameter, Channel.Time, 
TestParameter, Measurement.Port.Unit, SMU1:MP, SMU2:MP
TestParameter, Measurement.Port.SeriesResistor, NONE, NONE
TestParameter, Measurement.Port.Filter, ON, ON
TestParameter, Measurement.Primary.Locus, Single
TestParameter, Measurement.Primary.Scale, LINEAR
TestParameter, Measurement.Primary.Start, -5
TestParameter, Measurement.Primary.Stop, 5
TestParameter, Measurement.Primary.Step, 0.1
TestParameter, Measurement.Primary.Compliance, 0.1
TestParameter, Measurement.Primary.PowerCompliance, 0
TestParameter, Measurement.Aborting.Condition, CONTINUE AT ANY
TestParameter, Measurement.PostOutput.Value, START
TestParameter, Measurement.PostOutput.Retention, OFF
TestParameter, Measurement.Bias.Source, -5, 0
TestParameter, Measurement.Bias.Compliance, 0.1, 0.1
TestParameter, Measurement.Monitor.Unit, SMU2:MP, SMU1:MP
TestParameter, Measurement.Monitor.Adc, HR ADC, HR ADC
TestParameter, Measurement.Monitor.RangingMode, LIMITED, LIMITED
TestParameter, Measurement.Monitor.RangeBoundary, 1nA, 1nA
TestParameter, Measurement.Monitor.RangeRating, BY FULL RANGE, BY FULL RANGE
TestParameter, Measurement.Monitor.RangeRatingCoeff, 50, 50
TestParameter, Measurement.Timing.Hold, 0
TestParameter, Measurement.Timing.Delay, 0
TestParameter, Measurement.Adc.HighResolution.AutoZero, OFF
TestParameter, Measurement.Adc.HighResolution.Mode, AUTO
TestParameter, Measurement.Adc.HighResolution.Coeff, 1
TestParameter, Measurement.Ag16440ASelector.SemiconductorRelay.Channel1, DEFAULT
TestParameter, Measurement.Ag16440ASelector.SemiconductorRelay.Channel3, DEFAULT
TestParameter, Output.Graph.Enabled, true
TestParameter, Output.Graph.XAxis.Data, V1
TestParameter, Output.Graph.XAxis.Scale, Linear
TestParameter, Output.Graph.XAxis.Left, -5
TestParameter, Output.Graph.XAxis.Right, 5
TestParameter, Output.Graph.YAxis.Data, I1
TestParameter, Output.Graph.YAxis.Scale, Linear
TestParameter, Output.Graph.YAxis.Bottom, -0.1
TestParameter, Output.Graph.YAxis.Top, 0.1
TestParameter, Output.Graph.YAxis.Group, 
TestParameter, AutoAnalysis.Interpolation, false
TestParameter, AutoAnalysis.Line1.Enabled, false
TestParameter, AutoAnalysis.Line1.Type, 1
TestParameter, AutoAnalysis.Line1.Fix, True
TestParameter, AutoAnalysis.Line1.YAxis, 0
TestParameter, AutoAnalysis.Line1.Point1.Type, 0
TestParameter, AutoAnalysis.Line1.Point1.XY.X, 
TestParameter, AutoAnalysis.Line1.Point1.XY.Y, 
TestParameter, AutoAnalysis.Line1.Point1.Data.Var, 
TestParameter, AutoAnalysis.Line1.Point1.Data.Condition, 
TestParameter, AutoAnalysis.Line1.Point1.Data.Start, false
TestParameter, AutoAnalysis.Line1.Point1.Data.StartVar, 
TestParameter, AutoAnalysis.Line1.Point1.Data.StartCondition, 
TestParameter, AutoAnalysis.Line1.Point2.Type, 0
TestParameter, AutoAnalysis.Line1.Point2.XY.X, 
TestParameter, AutoAnalysis.Line1.Point2.XY.Y, 
TestParameter, AutoAnalysis.Line1.Point2.Data.Var, 
TestParameter, AutoAnalysis.Line1.Point2.Data.Condition, 
TestParameter, AutoAnalysis.Line1.Point2.Data.Start, false
TestParameter, AutoAnalysis.Line1.Point2.Data.StartVar, 
TestParameter, AutoAnalysis.Line1.Point2.Data.StartCondition, 
TestParameter, AutoAnalysis.Line1.GradientExpr, 0
TestParameter, AutoAnalysis.Line2.Enabled, false
TestParameter, AutoAnalysis.Line2.Type, 1
TestParameter, AutoAnalysis.Line2.Fix, True
TestParameter, AutoAnalysis.Line2.YAxis, 0
TestParameter, AutoAnalysis.Line2.Point1.Type, 0
TestParameter, AutoAnalysis.Line2.Point1.XY.X, 
TestParameter, AutoAnalysis.Line2.Point1.XY.Y, 
TestParameter, AutoAnalysis.Line2.Point1.Data.Var, 
TestParameter, AutoAnalysis.Line2.Point1.Data.Condition, 
TestParameter, AutoAnalysis.Line2.Point1.Data.Start, false
TestParameter, AutoAnalysis.Line2.Point1.Data.StartVar, 
TestParameter, AutoAnalysis.Line2.Point1.Data.StartCondition, 
TestParameter, AutoAnalysis.Line2.Point2.Type, 0
TestParameter, AutoAnalysis.Line2.Point2.XY.X, 
TestParameter, AutoAnalysis.Line2.Point2.XY.Y, 
TestParameter, AutoAnalysis.Line2.Point2.Data.Var, 
TestParameter, AutoAnalysis.Line2.Point2.Data.Condition, 
TestParameter, AutoAnalysis.Line2.Point2.Data.Start, false
TestParameter, AutoAnalysis.Line2.Point2.Data.StartVar, 
TestParameter, AutoAnalysis.Line2.Point2.Data.StartCondition, 
TestParameter, AutoAnalysis.Line2.GradientExpr, 0
TestParameter, AutoAnalysis.Marker.Enabled, false
TestParameter, AutoAnalysis.Marker.Data.Var, 
TestParameter, AutoAnalysis.Marker.Data.Condition, 
TestParameter, AutoAnalysis.Marker.Data.Start, false
TestParameter, AutoAnalysis.Marker.Data.StartVar, 
TestParameter, AutoAnalysis.Marker.Data.StartCondition, 
MetaData, TestRecord.EntryPoint, true
MetaData, TestRecord.RecordTime, 04/01/2025 10:40:23
MetaData, TestRecord.TestTarget, 
MetaData, TestRecord.IterationIndex, 8
MetaData, TestRecord.Preservation, true
MetaData, TestRecord.Flag, 
MetaData, TestRecord.Remarks, 2C light off
MetaData, TestRecord.LinkKey, 2f60fc81-4000-4d7b-80be-38b3f3bd60c7
Dimension1, 101, 101
Dimension2, 1, 1
DataName, V1, I1
DataValue, -5, -0.0742933
DataValue, -4.9, -0.0727907
DataValue, -4.8, -0.0713063
DataValue, -4.7, -0.0698301
DataValue, -4.6000000000000005, -0.068359800000000012
DataValue, -4.5, -0.0668891
DataValue, -4.4, -0.0654179
DataValue, -4.3, -0.0639479
DataValue, -4.2, -0.062478200000000005
DataValue, -4.1, -0.061007500000000006
DataValue, -4, -0.059535700000000004
DataValue, -3.9, -0.058052500000000007
DataValue, -3.8000000000000003, -0.0565809
DataValue, -3.7, -0.055107400000000008
DataValue, -3.6, -0.0536321
DataValue, -3.5, -0.0521565
DataValue, -3.4, -0.050680400000000007
DataValue, -3.3000000000000003, -0.049202100000000006
DataValue, -3.2, -0.047723900000000007
DataValue, -3.1, -0.0462445
DataValue, -3, -0.044764800000000007
DataValue, -2.9, -0.043282200000000007
DataValue, -2.8000000000000003, -0.0418006
DataValue, -2.7, -0.0403176
DataValue, -2.6, -0.0388335
DataValue, -2.5, -0.0373478
DataValue, -2.4, -0.035862200000000004
DataValue, -2.3000000000000003, -0.034375800000000005
DataValue, -2.2, -0.0328888
DataValue, -2.1, -0.031399500000000004
DataValue, -2, -0.029910600000000002
DataValue, -1.9000000000000001, -0.0284211
DataValue, -1.8, -0.0269302
DataValue, -1.7000000000000002, -0.0254381
DataValue, -1.6, -0.023946000000000002
DataValue, -1.5, -0.0224558
DataValue, -1.4000000000000001, -0.0209633
DataValue, -1.3, -0.0194689
DataValue, -1.2, -0.017974800000000003
DataValue, -1.1, -0.0164695
DataValue, -1, -0.014974300000000001
DataValue, -0.9, -0.0134783
DataValue, -0.8, -0.011982000000000001
DataValue, -0.70000000000000007, -0.010487100000000001
DataValue, -0.6, -0.00898379
DataValue, -0.5, -0.00748634
DataValue, -0.4, -0.0059889
DataValue, -0.3, -0.00449252
DataValue, -0.2, -0.00299378
DataValue, -0.1, -0.0014963700000000001
DataValue, 0, -9.72696E-06
DataValue, 0.1, 0.00148666
DataValue, 0.2, 0.00298466
DataValue, 0.3, 0.00448152
DataValue, 0.4, 0.00598974
DataValue, 0.5, 0.0074864200000000006
DataValue, 0.6, 0.00898416
DataValue, 0.70000000000000007, 0.01048076
DataValue, 0.8, 0.011969500000000001
DataValue, 0.9, 0.013465300000000001
DataValue, 1, 0.014962000000000001
DataValue, 1.1, 0.0164575
DataValue, 1.2, 0.0179523
DataValue, 1.3, 0.019447000000000002
DataValue, 1.4000000000000001, 0.0209427
DataValue, 1.5, 0.0224366
DataValue, 1.6, 0.023927700000000003
DataValue, 1.7000000000000002, 0.025420300000000003
DataValue, 1.8, 0.026913100000000002
DataValue, 1.9000000000000001, 0.0284048
DataValue, 2, 0.029895300000000003
DataValue, 2.1, 0.0313859
DataValue, 2.2, 0.032876100000000005
DataValue, 2.3000000000000003, 0.034365200000000005
DataValue, 2.4, 0.035852300000000004
DataValue, 2.5, 0.0373502
DataValue, 2.6, 0.038837100000000006
DataValue, 2.7, 0.040322800000000006
DataValue, 2.8000000000000003, 0.041806600000000006
DataValue, 2.9, 0.043291600000000006
DataValue, 3, 0.044773700000000007
DataValue, 3.1, 0.0462556
DataValue, 3.2, 0.047735200000000005
DataValue, 3.3000000000000003, 0.0492155
DataValue, 3.4, 0.050693100000000005
DataValue, 3.5, 0.05217
DataValue, 3.6, 0.053645100000000008
DataValue, 3.7, 0.055120800000000005
DataValue, 3.8000000000000003, 0.056593300000000006
DataValue, 3.9, 0.058064600000000008
DataValue, 4, 0.0595342
DataValue, 4.1, 0.061004100000000006
DataValue, 4.2, 0.062471500000000006
DataValue, 4.3, 0.0639374
DataValue, 4.4, 0.0654016
DataValue, 4.5, 0.066877
DataValue, 4.6000000000000005, 0.06833850000000001
DataValue, 4.7, 0.0697957
DataValue, 4.8, 0.071253400000000008
DataValue, 4.9, 0.0727101
DataValue, 5, 0.0741649