
SetupTitle, I/V Sweep
PrimitiveTest, I/V Sweep
TestParameter, Context.MainFrame, 4155B
TestParameter, Channel.UnitType, SMU, SMU
TestParameter, Channel.Unit, SMU2:MP, SMU4:MP
TestParameter, Channel.IName, I1, I2
TestParameter, Channel.VName, V1, V2
TestParameter, Channel.Mode, V, V
TestParameter, Channel.Func, VAR1, CONST
TestParameter, Channel.Index, 
TestParameter, Channel.Time, 
TestParameter, Measurement.Port.Unit, SMU2:MP, SMU4:MP
TestParameter, Measurement.Port.SeriesResistor, NONE, NONE
TestParameter, Measurement.Port.Filter, ON, ON
TestParameter, Measurement.Primary.Locus, Single
TestParameter, Measurement.Primary.Scale, LINEAR
TestParameter, Measurement.Primary.Start, -40
TestParameter, Measurement.Primary.Stop, 40
TestParameter, Measurement.Primary.Step, 0.8
TestParameter, Measurement.Primary.Compliance, 0.05
TestParameter, Measurement.Primary.PowerCompliance, 0
TestParameter, Measurement.Aborting.Condition, CONTINUE AT ANY
TestParameter, Measurement.PostOutput.Value, START
TestParameter, Measurement.PostOutput.Retention, OFF
TestParameter, Measurement.Bias.Source, -40, -40
TestParameter, Measurement.Bias.Compliance, 0.05, 0.05
TestParameter, Measurement.Monitor.Unit, SMU4:MP, SMU2:MP
TestParameter, Measurement.Monitor.Adc, HR ADC, HR ADC
TestParameter, Measurement.Monitor.RangingMode, LIMITED, LIMITED
TestParameter, Measurement.Monitor.RangeBoundary, 1nA, 1nA
TestParameter, Measurement.Monitor.RangeRating, BY FULL RANGE, BY FULL RANGE
TestParameter, Measurement.Monitor.RangeRatingCoeff, 50, 50
TestParameter, Measurement.Timing.Hold, 0
TestParameter, Measurement.Timing.Delay, 0
TestParameter, Measurement.Adc.HighResolution.AutoZero, OFF
TestParameter, Measurement.Adc.HighResolution.Mode, AUTO
TestParameter, Measurement.Adc.HighResolution.Coeff, 1
TestParameter, Measurement.Ag16440ASelector.SemiconductorRelay.Channel1, DEFAULT
TestParameter, Measurement.Ag16440ASelector.SemiconductorRelay.Channel3, DEFAULT
TestParameter, Output.Graph.Enabled, true
TestParameter, Output.Graph.XAxis.Data, V1
TestParameter, Output.Graph.XAxis.Scale, Linear
TestParameter, Output.Graph.XAxis.Left, -40
TestParameter, Output.Graph.XAxis.Right, 40
TestParameter, Output.Graph.YAxis.Data, I1
TestParameter, Output.Graph.YAxis.Scale, Linear
TestParameter, Output.Graph.YAxis.Bottom, -0.1
TestParameter, Output.Graph.YAxis.Top, 0.1
TestParameter, Output.Graph.YAxis.Group, 
TestParameter, AutoAnalysis.Interpolation, false
TestParameter, AutoAnalysis.Line1.Enabled, false
TestParameter, AutoAnalysis.Line1.Type, 1
TestParameter, AutoAnalysis.Line1.Fix, True
TestParameter, AutoAnalysis.Line1.YAxis, 0
TestParameter, AutoAnalysis.Line1.Point1.Type, 0
TestParameter, AutoAnalysis.Line1.Point1.XY.X, 
TestParameter, AutoAnalysis.Line1.Point1.XY.Y, 
TestParameter, AutoAnalysis.Line1.Point1.Data.Var, 
TestParameter, AutoAnalysis.Line1.Point1.Data.Condition, 
TestParameter, AutoAnalysis.Line1.Point1.Data.Start, false
TestParameter, AutoAnalysis.Line1.Point1.Data.StartVar, 
TestParameter, AutoAnalysis.Line1.Point1.Data.StartCondition, 
TestParameter, AutoAnalysis.Line1.Point2.Type, 0
TestParameter, AutoAnalysis.Line1.Point2.XY.X, 
TestParameter, AutoAnalysis.Line1.Point2.XY.Y, 
TestParameter, AutoAnalysis.Line1.Point2.Data.Var, 
TestParameter, AutoAnalysis.Line1.Point2.Data.Condition, 
TestParameter, AutoAnalysis.Line1.Point2.Data.Start, false
TestParameter, AutoAnalysis.Line1.Point2.Data.StartVar, 
TestParameter, AutoAnalysis.Line1.Point2.Data.StartCondition, 
TestParameter, AutoAnalysis.Line1.GradientExpr, 0
TestParameter, AutoAnalysis.Line2.Enabled, false
TestParameter, AutoAnalysis.Line2.Type, 1
TestParameter, AutoAnalysis.Line2.Fix, True
TestParameter, AutoAnalysis.Line2.YAxis, 0
TestParameter, AutoAnalysis.Line2.Point1.Type, 0
TestParameter, AutoAnalysis.Line2.Point1.XY.X, 
TestParameter, AutoAnalysis.Line2.Point1.XY.Y, 
TestParameter, AutoAnalysis.Line2.Point1.Data.Var, 
TestParameter, AutoAnalysis.Line2.Point1.Data.Condition, 
TestParameter, AutoAnalysis.Line2.Point1.Data.Start, false
TestParameter, AutoAnalysis.Line2.Point1.Data.StartVar, 
TestParameter, AutoAnalysis.Line2.Point1.Data.StartCondition, 
TestParameter, AutoAnalysis.Line2.Point2.Type, 0
TestParameter, AutoAnalysis.Line2.Point2.XY.X, 
TestParameter, AutoAnalysis.Line2.Point2.XY.Y, 
TestParameter, AutoAnalysis.Line2.Point2.Data.Var, 
TestParameter, AutoAnalysis.Line2.Point2.Data.Condition, 
TestParameter, AutoAnalysis.Line2.Point2.Data.Start, false
TestParameter, AutoAnalysis.Line2.Point2.Data.StartVar, 
TestParameter, AutoAnalysis.Line2.Point2.Data.StartCondition, 
TestParameter, AutoAnalysis.Line2.GradientExpr, 0
TestParameter, AutoAnalysis.Marker.Enabled, false
TestParameter, AutoAnalysis.Marker.Data.Var, 
TestParameter, AutoAnalysis.Marker.Data.Condition, 
TestParameter, AutoAnalysis.Marker.Data.Start, false
TestParameter, AutoAnalysis.Marker.Data.StartVar, 
TestParameter, AutoAnalysis.Marker.Data.StartCondition, 
MetaData, TestRecord.EntryPoint, true
MetaData, TestRecord.RecordTime, 04/01/2025 11:15:39
MetaData, TestRecord.TestTarget, 
MetaData, TestRecord.IterationIndex, 28
MetaData, TestRecord.Preservation, true
MetaData, TestRecord.Flag, 
MetaData, TestRecord.Remarks, 7 diode -40bias 10centered
MetaData, TestRecord.LinkKey, 2f4a4000-ddc5-4b40-bb29-c64c61a15345
Dimension1, 101, 101
Dimension2, 1, 1
DataName, V1, I1
DataValue, -40, -1.20822E-07
DataValue, -39.2, 4.0278600000000004E-05
DataValue, -38.4, 8.00712E-05
DataValue, -37.6, 0.000118462
DataValue, -36.800000000000004, 0.000155184
DataValue, -36, 0.000190415
DataValue, -35.2, 0.000224388
DataValue, -34.4, 0.000257319
DataValue, -33.6, 0.000289201
DataValue, -32.8, 0.00032021800000000004
DataValue, -32, 0.000350458
DataValue, -31.2, 0.000380033
DataValue, -30.400000000000002, 0.000408923
DataValue, -29.6, 0.000437214
DataValue, -28.8, 0.000465013
DataValue, -28, 0.000492267
DataValue, -27.2, 0.000519059
DataValue, -26.400000000000002, 0.00054547200000000008
DataValue, -25.6, 0.000571448
DataValue, -24.8, 0.00059708200000000008
DataValue, -24, 0.00062243500000000007
DataValue, -23.2, 0.000647594
DataValue, -22.400000000000002, 0.00067262700000000008
DataValue, -21.6, 0.00069804300000000008
DataValue, -20.8, 0.00072419500000000007
DataValue, -20, 0.000751157
DataValue, -19.2, 0.0007786160000000001
DataValue, -18.400000000000002, 0.000806541
DataValue, -17.6, 0.000834456
DataValue, -16.8, 0.000862391
DataValue, -16, 0.00089031700000000006
DataValue, -15.200000000000001, 0.00091799300000000009
DataValue, -14.4, 0.00094563800000000006
DataValue, -13.6, 0.00097325400000000011
DataValue, -12.8, 0.001000632
DataValue, -12, 0.001027925
DataValue, -11.200000000000001, 0.00105498
DataValue, -10.4, 0.001082117
DataValue, -9.6, 0.0011094190000000002
DataValue, -8.8, 0.001136697
DataValue, -8, 0.00116425
DataValue, -7.2, 0.00119153
DataValue, -6.4, 0.00121905
DataValue, -5.6000000000000005, 0.00124712
DataValue, -4.8, 0.0012755
DataValue, -4, 0.00130536
DataValue, -3.2, 0.00133647
DataValue, -2.4, 0.0013687200000000001
DataValue, -1.6, 0.00140278
DataValue, -0.8, 0.00143855
DataValue, 0, 0.0014767600000000001
DataValue, 0.8, 0.0015188600000000001
DataValue, 1.6, 0.00156425
DataValue, 2.4, 0.0016151100000000001
DataValue, 3.2, 0.00167076
DataValue, 4, 0.00173541
DataValue, 4.8, 0.00180777
DataValue, 5.6000000000000005, 0.00189503
DataValue, 6.4, 0.002003
DataValue, 7.2, 0.00214553
DataValue, 8, 0.00234667
DataValue, 8.8, 0.0027226
DataValue, 9.6, 0.049998900000000006
DataValue, 10.4, 0.049998000000000008
DataValue, 11.200000000000001, 0.049997700000000006
DataValue, 12, 0.049997500000000007
DataValue, 12.8, 0.049997400000000004
DataValue, 13.6, 0.049997200000000006
DataValue, 14.4, 0.049997200000000006
DataValue, 15.200000000000001, 0.049997200000000006
DataValue, 16, 0.0499971
DataValue, 16.8, 0.049997200000000006
DataValue, 17.6, 0.049997200000000006
DataValue, 18.400000000000002, 0.0499935
DataValue, 19.2, 0.0499935
DataValue, 20, 0.049993400000000007
DataValue, 20.8, 0.049993400000000007
DataValue, 21.6, 0.0499932
DataValue, 22.400000000000002, 0.049993600000000006
DataValue, 23.2, 0.049993100000000006
DataValue, 24, 0.0499935
DataValue, 24.8, 0.0499935
DataValue, 25.6, 0.049993
DataValue, 26.400000000000002, 0.049993300000000004
DataValue, 27.2, 0.0499935
DataValue, 28, 0.049993400000000007
DataValue, 28.8, 0.049993300000000004
DataValue, 29.6, 0.0499932
DataValue, 30.400000000000002, 0.0499932
DataValue, 31.2, 0.0499932
DataValue, 32, 0.0499932
DataValue, 32.8, 0.0499932
DataValue, 33.6, 0.049993100000000006
DataValue, 34.4, 0.049993
DataValue, 35.2, 0.0499932
DataValue, 36, 0.0499932
DataValue, 36.800000000000004, 0.049993100000000006
DataValue, 37.6, 0.0499932
DataValue, 38.4, 0.049993
DataValue, 39.2, 0.049993100000000006
DataValue, 40, 0.049993100000000006