
SetupTitle, I/V Sweep
PrimitiveTest, I/V Sweep
TestParameter, Context.MainFrame, 4155B
TestParameter, Channel.UnitType, SMU, SMU
TestParameter, Channel.Unit, SMU2:MP, SMU3:MP
TestParameter, Channel.IName, I1, I2
TestParameter, Channel.VName, V1, V2
TestParameter, Channel.Mode, V, V
TestParameter, Channel.Func, VAR1, CONST
TestParameter, Channel.Index, 
TestParameter, Channel.Time, 
TestParameter, Measurement.Port.Unit, SMU2:MP, SMU3:MP
TestParameter, Measurement.Port.SeriesResistor, NONE, NONE
TestParameter, Measurement.Port.Filter, ON, ON
TestParameter, Measurement.Primary.Locus, Single
TestParameter, Measurement.Primary.Scale, LINEAR
TestParameter, Measurement.Primary.Start, -40
TestParameter, Measurement.Primary.Stop, 40
TestParameter, Measurement.Primary.Step, 0.8
TestParameter, Measurement.Primary.Compliance, 0.05
TestParameter, Measurement.Primary.PowerCompliance, 0
TestParameter, Measurement.Aborting.Condition, CONTINUE AT ANY
TestParameter, Measurement.PostOutput.Value, START
TestParameter, Measurement.PostOutput.Retention, OFF
TestParameter, Measurement.Bias.Source, -40, -40
TestParameter, Measurement.Bias.Compliance, 0.05, 0.05
TestParameter, Measurement.Monitor.Unit, SMU3:MP, SMU2:MP
TestParameter, Measurement.Monitor.Adc, HR ADC, HR ADC
TestParameter, Measurement.Monitor.RangingMode, LIMITED, LIMITED
TestParameter, Measurement.Monitor.RangeBoundary, 1nA, 1nA
TestParameter, Measurement.Monitor.RangeRating, BY FULL RANGE, BY FULL RANGE
TestParameter, Measurement.Monitor.RangeRatingCoeff, 50, 50
TestParameter, Measurement.Timing.Hold, 0
TestParameter, Measurement.Timing.Delay, 0
TestParameter, Measurement.Adc.HighResolution.AutoZero, OFF
TestParameter, Measurement.Adc.HighResolution.Mode, AUTO
TestParameter, Measurement.Adc.HighResolution.Coeff, 1
TestParameter, Measurement.Ag16440ASelector.SemiconductorRelay.Channel1, DEFAULT
TestParameter, Measurement.Ag16440ASelector.SemiconductorRelay.Channel3, DEFAULT
TestParameter, Output.Graph.Enabled, true
TestParameter, Output.Graph.XAxis.Data, V1
TestParameter, Output.Graph.XAxis.Scale, Linear
TestParameter, Output.Graph.XAxis.Left, -50
TestParameter, Output.Graph.XAxis.Right, 40
TestParameter, Output.Graph.YAxis.Data, I1
TestParameter, Output.Graph.YAxis.Scale, Linear
TestParameter, Output.Graph.YAxis.Bottom, -0.1
TestParameter, Output.Graph.YAxis.Top, 0.1
TestParameter, Output.Graph.YAxis.Group, 
TestParameter, AutoAnalysis.Interpolation, false
TestParameter, AutoAnalysis.Line1.Enabled, false
TestParameter, AutoAnalysis.Line1.Type, 1
TestParameter, AutoAnalysis.Line1.Fix, True
TestParameter, AutoAnalysis.Line1.YAxis, 0
TestParameter, AutoAnalysis.Line1.Point1.Type, 0
TestParameter, AutoAnalysis.Line1.Point1.XY.X, 
TestParameter, AutoAnalysis.Line1.Point1.XY.Y, 
TestParameter, AutoAnalysis.Line1.Point1.Data.Var, 
TestParameter, AutoAnalysis.Line1.Point1.Data.Condition, 
TestParameter, AutoAnalysis.Line1.Point1.Data.Start, false
TestParameter, AutoAnalysis.Line1.Point1.Data.StartVar, 
TestParameter, AutoAnalysis.Line1.Point1.Data.StartCondition, 
TestParameter, AutoAnalysis.Line1.Point2.Type, 0
TestParameter, AutoAnalysis.Line1.Point2.XY.X, 
TestParameter, AutoAnalysis.Line1.Point2.XY.Y, 
TestParameter, AutoAnalysis.Line1.Point2.Data.Var, 
TestParameter, AutoAnalysis.Line1.Point2.Data.Condition, 
TestParameter, AutoAnalysis.Line1.Point2.Data.Start, false
TestParameter, AutoAnalysis.Line1.Point2.Data.StartVar, 
TestParameter, AutoAnalysis.Line1.Point2.Data.StartCondition, 
TestParameter, AutoAnalysis.Line1.GradientExpr, 0
TestParameter, AutoAnalysis.Line2.Enabled, false
TestParameter, AutoAnalysis.Line2.Type, 1
TestParameter, AutoAnalysis.Line2.Fix, True
TestParameter, AutoAnalysis.Line2.YAxis, 0
TestParameter, AutoAnalysis.Line2.Point1.Type, 0
TestParameter, AutoAnalysis.Line2.Point1.XY.X, 
TestParameter, AutoAnalysis.Line2.Point1.XY.Y, 
TestParameter, AutoAnalysis.Line2.Point1.Data.Var, 
TestParameter, AutoAnalysis.Line2.Point1.Data.Condition, 
TestParameter, AutoAnalysis.Line2.Point1.Data.Start, false
TestParameter, AutoAnalysis.Line2.Point1.Data.StartVar, 
TestParameter, AutoAnalysis.Line2.Point1.Data.StartCondition, 
TestParameter, AutoAnalysis.Line2.Point2.Type, 0
TestParameter, AutoAnalysis.Line2.Point2.XY.X, 
TestParameter, AutoAnalysis.Line2.Point2.XY.Y, 
TestParameter, AutoAnalysis.Line2.Point2.Data.Var, 
TestParameter, AutoAnalysis.Line2.Point2.Data.Condition, 
TestParameter, AutoAnalysis.Line2.Point2.Data.Start, false
TestParameter, AutoAnalysis.Line2.Point2.Data.StartVar, 
TestParameter, AutoAnalysis.Line2.Point2.Data.StartCondition, 
TestParameter, AutoAnalysis.Line2.GradientExpr, 0
TestParameter, AutoAnalysis.Marker.Enabled, false
TestParameter, AutoAnalysis.Marker.Data.Var, 
TestParameter, AutoAnalysis.Marker.Data.Condition, 
TestParameter, AutoAnalysis.Marker.Data.Start, false
TestParameter, AutoAnalysis.Marker.Data.StartVar, 
TestParameter, AutoAnalysis.Marker.Data.StartCondition, 
MetaData, TestRecord.EntryPoint, true
MetaData, TestRecord.RecordTime, 04/01/2025 12:00:03
MetaData, TestRecord.TestTarget, 
MetaData, TestRecord.IterationIndex, 56
MetaData, TestRecord.Preservation, true
MetaData, TestRecord.Flag, 
MetaData, TestRecord.Remarks, 7 diode -40bias needle on substrate
MetaData, TestRecord.LinkKey, c54cbe99-8629-432f-a62b-2b4601b2ac82
Dimension1, 101, 101
Dimension2, 1, 1
DataName, V1, I1
DataValue, -40, 1.3854399999999998E-08
DataValue, -39.2, 3.0793E-05
DataValue, -38.4, 6.1291400000000007E-05
DataValue, -37.6, 9.10653E-05
DataValue, -36.800000000000004, 0.000120285
DataValue, -36, 0.00014925300000000002
DataValue, -35.2, 0.000178142
DataValue, -34.4, 0.000206986
DataValue, -33.6, 0.00023567500000000002
DataValue, -32.8, 0.00026449700000000004
DataValue, -32, 0.000293578
DataValue, -31.2, 0.00032263
DataValue, -30.400000000000002, 0.000351154
DataValue, -29.6, 0.000379081
DataValue, -28.8, 0.00040665000000000005
DataValue, -28, 0.00043422800000000004
DataValue, -27.2, 0.00046217400000000004
DataValue, -26.400000000000002, 0.00049039
DataValue, -25.6, 0.000518413
DataValue, -24.8, 0.000546289
DataValue, -24, 0.000573792
DataValue, -23.2, 0.000600833
DataValue, -22.400000000000002, 0.00062741500000000009
DataValue, -21.6, 0.000653661
DataValue, -20.8, 0.00067973200000000006
DataValue, -20, 0.000705594
DataValue, -19.2, 0.00073130200000000008
DataValue, -18.400000000000002, 0.00075687500000000006
DataValue, -17.6, 0.000782372
DataValue, -16.8, 0.00080781200000000009
DataValue, -16, 0.0008332630000000001
DataValue, -15.200000000000001, 0.00085872600000000009
DataValue, -14.4, 0.00088422400000000008
DataValue, -13.6, 0.0009097930000000001
DataValue, -12.8, 0.000935686
DataValue, -12, 0.000961605
DataValue, -11.200000000000001, 0.000987769
DataValue, -10.4, 0.001014243
DataValue, -9.6, 0.0010409850000000001
DataValue, -8.8, 0.001067994
DataValue, -8, 0.0010957
DataValue, -7.2, 0.001123925
DataValue, -6.4, 0.0011526
DataValue, -5.6000000000000005, 0.0011826900000000001
DataValue, -4.8, 0.00121435
DataValue, -4, 0.00124835
DataValue, -3.2, 0.0012862400000000001
DataValue, -2.4, 0.0013307
DataValue, -1.6, 0.00138943
DataValue, -0.8, 0.00151256
DataValue, 0, 0.049997200000000006
DataValue, 0.8, 0.049996900000000004
DataValue, 1.6, 0.049997000000000007
DataValue, 2.4, 0.049996900000000004
DataValue, 3.2, 0.049996900000000004
DataValue, 4, 0.049996900000000004
DataValue, 4.8, 0.049996900000000004
DataValue, 5.6000000000000005, 0.049996900000000004
DataValue, 6.4, 0.049996900000000004
DataValue, 7.2, 0.049996900000000004
DataValue, 8, 0.049996900000000004
DataValue, 8.8, 0.049996900000000004
DataValue, 9.6, 0.049996700000000005
DataValue, 10.4, 0.049991900000000006
DataValue, 11.200000000000001, 0.049991900000000006
DataValue, 12, 0.049991900000000006
DataValue, 12.8, 0.0499918
DataValue, 13.6, 0.0499918
DataValue, 14.4, 0.049991900000000006
DataValue, 15.200000000000001, 0.0499918
DataValue, 16, 0.050021400000000008
DataValue, 16.8, 0.049996300000000007
DataValue, 17.6, 0.0499993
DataValue, 18.400000000000002, 0.0499968
DataValue, 19.2, 0.0499968
DataValue, 20, 0.049997400000000004
DataValue, 20.8, 0.049996900000000004
DataValue, 21.6, 0.049993100000000006
DataValue, 22.400000000000002, 0.0499918
DataValue, 23.2, 0.0499918
DataValue, 24, 0.049991700000000007
DataValue, 24.8, 0.0499918
DataValue, 25.6, 0.0499918
DataValue, 26.400000000000002, 0.0499918
DataValue, 27.2, 0.0499918
DataValue, 28, 0.0499918
DataValue, 28.8, 0.0499918
DataValue, 29.6, 0.0499918
DataValue, 30.400000000000002, 0.0499918
DataValue, 31.2, 0.0499918
DataValue, 32, 0.0499918
DataValue, 32.8, 0.0499918
DataValue, 33.6, 0.0499918
DataValue, 34.4, 0.049991700000000007
DataValue, 35.2, 0.0499918
DataValue, 36, 0.0499918
DataValue, 36.800000000000004, 0.049991700000000007
DataValue, 37.6, 0.0499918
DataValue, 38.4, 0.049991600000000004
DataValue, 39.2, 0.049991600000000004
DataValue, 40, 0.049991700000000007