
SetupTitle, I/V Sweep
PrimitiveTest, I/V Sweep
TestParameter, Context.MainFrame, 4155B
TestParameter, Channel.UnitType, SMU, SMU, SMU, SMU
TestParameter, Channel.Unit, SMU1:MP, SMU2:MP, SMU3:MP, SMU4:MP
TestParameter, Channel.IName, I1, I2, I3, I4
TestParameter, Channel.VName, V1, V2, V3, V4
TestParameter, Channel.Mode, I, V, I, I
TestParameter, Channel.Func, VAR1, CONST, CONST, CONST
TestParameter, Channel.Index, 
TestParameter, Channel.Time, 
TestParameter, Measurement.Port.Unit, SMU1:MP, SMU2:MP, SMU3:MP, SMU4:MP
TestParameter, Measurement.Port.SeriesResistor, NONE, NONE, NONE, NONE
TestParameter, Measurement.Port.Filter, ON, ON, ON, ON
TestParameter, Measurement.Primary.Locus, Single
TestParameter, Measurement.Primary.Scale, LINEAR
TestParameter, Measurement.Primary.Start, -0.1
TestParameter, Measurement.Primary.Stop, 0.1
TestParameter, Measurement.Primary.Step, 0.002
TestParameter, Measurement.Primary.Compliance, 5
TestParameter, Measurement.Primary.PowerCompliance, 0
TestParameter, Measurement.Aborting.Condition, CONTINUE AT ANY
TestParameter, Measurement.PostOutput.Value, START
TestParameter, Measurement.PostOutput.Retention, OFF
TestParameter, Measurement.Bias.Source, -0.1, 0, 0.0001, 0.0001
TestParameter, Measurement.Bias.Compliance, 5, 0.1, 5, 5
TestParameter, Measurement.Monitor.Unit, SMU1:MP, SMU2:MP, SMU3:MP, SMU4:MP
TestParameter, Measurement.Monitor.Adc, HR ADC, HR ADC, HR ADC, HR ADC
TestParameter, Measurement.Monitor.RangingMode, AUTO, LIMITED, AUTO, AUTO
TestParameter, Measurement.Monitor.RangeBoundary, , 1nA, , 
TestParameter, Measurement.Timing.Hold, 0
TestParameter, Measurement.Timing.Delay, 0
TestParameter, Measurement.Adc.HighResolution.AutoZero, OFF
TestParameter, Measurement.Adc.HighResolution.Mode, AUTO
TestParameter, Measurement.Adc.HighResolution.Coeff, 1
TestParameter, Measurement.Ag16440ASelector.SemiconductorRelay.Channel1, DEFAULT
TestParameter, Measurement.Ag16440ASelector.SemiconductorRelay.Channel3, DEFAULT
TestParameter, Output.Graph.Enabled, true
TestParameter, Output.Graph.XAxis.Data, V1
TestParameter, Output.Graph.XAxis.Scale, Linear
TestParameter, Output.Graph.XAxis.Left, -5
TestParameter, Output.Graph.XAxis.Right, 5
TestParameter, Output.Graph.YAxis.Data, I1
TestParameter, Output.Graph.YAxis.Scale, Linear
TestParameter, Output.Graph.YAxis.Bottom, -0.1
TestParameter, Output.Graph.YAxis.Top, 0.1
TestParameter, Output.Graph.YAxis.Group, 
TestParameter, AutoAnalysis.Interpolation, false
TestParameter, AutoAnalysis.Line1.Enabled, false
TestParameter, AutoAnalysis.Line1.Type, 1
TestParameter, AutoAnalysis.Line1.Fix, True
TestParameter, AutoAnalysis.Line1.YAxis, 0
TestParameter, AutoAnalysis.Line1.Point1.Type, 0
TestParameter, AutoAnalysis.Line1.Point1.XY.X, 
TestParameter, AutoAnalysis.Line1.Point1.XY.Y, 
TestParameter, AutoAnalysis.Line1.Point1.Data.Var, 
TestParameter, AutoAnalysis.Line1.Point1.Data.Condition, 
TestParameter, AutoAnalysis.Line1.Point1.Data.Start, false
TestParameter, AutoAnalysis.Line1.Point1.Data.StartVar, 
TestParameter, AutoAnalysis.Line1.Point1.Data.StartCondition, 
TestParameter, AutoAnalysis.Line1.Point2.Type, 0
TestParameter, AutoAnalysis.Line1.Point2.XY.X, 
TestParameter, AutoAnalysis.Line1.Point2.XY.Y, 
TestParameter, AutoAnalysis.Line1.Point2.Data.Var, 
TestParameter, AutoAnalysis.Line1.Point2.Data.Condition, 
TestParameter, AutoAnalysis.Line1.Point2.Data.Start, false
TestParameter, AutoAnalysis.Line1.Point2.Data.StartVar, 
TestParameter, AutoAnalysis.Line1.Point2.Data.StartCondition, 
TestParameter, AutoAnalysis.Line1.GradientExpr, 0
TestParameter, AutoAnalysis.Line2.Enabled, false
TestParameter, AutoAnalysis.Line2.Type, 1
TestParameter, AutoAnalysis.Line2.Fix, True
TestParameter, AutoAnalysis.Line2.YAxis, 0
TestParameter, AutoAnalysis.Line2.Point1.Type, 0
TestParameter, AutoAnalysis.Line2.Point1.XY.X, 
TestParameter, AutoAnalysis.Line2.Point1.XY.Y, 
TestParameter, AutoAnalysis.Line2.Point1.Data.Var, 
TestParameter, AutoAnalysis.Line2.Point1.Data.Condition, 
TestParameter, AutoAnalysis.Line2.Point1.Data.Start, false
TestParameter, AutoAnalysis.Line2.Point1.Data.StartVar, 
TestParameter, AutoAnalysis.Line2.Point1.Data.StartCondition, 
TestParameter, AutoAnalysis.Line2.Point2.Type, 0
TestParameter, AutoAnalysis.Line2.Point2.XY.X, 
TestParameter, AutoAnalysis.Line2.Point2.XY.Y, 
TestParameter, AutoAnalysis.Line2.Point2.Data.Var, 
TestParameter, AutoAnalysis.Line2.Point2.Data.Condition, 
TestParameter, AutoAnalysis.Line2.Point2.Data.Start, false
TestParameter, AutoAnalysis.Line2.Point2.Data.StartVar, 
TestParameter, AutoAnalysis.Line2.Point2.Data.StartCondition, 
TestParameter, AutoAnalysis.Line2.GradientExpr, 0
TestParameter, AutoAnalysis.Marker.Enabled, false
TestParameter, AutoAnalysis.Marker.Data.Var, 
TestParameter, AutoAnalysis.Marker.Data.Condition, 
TestParameter, AutoAnalysis.Marker.Data.Start, false
TestParameter, AutoAnalysis.Marker.Data.StartVar, 
TestParameter, AutoAnalysis.Marker.Data.StartCondition, 
MetaData, TestRecord.EntryPoint, true
MetaData, TestRecord.RecordTime, 04/01/2025 10:13:51
MetaData, TestRecord.TestTarget, 
MetaData, TestRecord.IterationIndex, 4
MetaData, TestRecord.Preservation, true
MetaData, TestRecord.Flag, 
MetaData, TestRecord.Remarks, 2B light off
MetaData, TestRecord.LinkKey, 96fdfe58-8b95-4584-939c-e0618c6a9404
Dimension1, 101, 101
Dimension2, 1, 1
DataName, I1, V1
DataValue, -0.1, -4.9995800000000008
DataValue, -0.098, -4.9995600000000007
DataValue, -0.096, -4.9995600000000007
DataValue, -0.094000000000000014, -4.9995400000000005
DataValue, -0.092000000000000012, -4.9995400000000005
DataValue, -0.090000000000000011, -4.9995800000000008
DataValue, -0.088000000000000009, -4.9995800000000008
DataValue, -0.086000000000000007, -4.9996
DataValue, -0.084, -4.9995800000000008
DataValue, -0.082, -4.99962
DataValue, -0.08, -4.9996
DataValue, -0.078, -4.99962
DataValue, -0.076000000000000012, -4.9996
DataValue, -0.07400000000000001, -4.99962
DataValue, -0.072000000000000008, -4.9995800000000008
DataValue, -0.07, -4.9995800000000008
DataValue, -0.068, -4.9995800000000008
DataValue, -0.066, -4.9995600000000007
DataValue, -0.064, -4.9996
DataValue, -0.062000000000000006, -4.9996
DataValue, -0.060000000000000005, -4.99962
DataValue, -0.058, -4.99962
DataValue, -0.056, -4.9996
DataValue, -0.054000000000000006, -4.9996
DataValue, -0.052000000000000005, -4.9996
DataValue, -0.05, -4.9995800000000008
DataValue, -0.048, -4.9995800000000008
DataValue, -0.046000000000000006, -4.9995600000000007
DataValue, -0.044000000000000004, -4.9995600000000007
DataValue, -0.042, -4.9995800000000008
DataValue, -0.04, -4.9996
DataValue, -0.038000000000000006, -4.9996
DataValue, -0.036000000000000004, -4.99962
DataValue, -0.034, -4.9995800000000008
DataValue, -0.032, -4.9995800000000008
DataValue, -0.030000000000000002, -4.9996
DataValue, -0.028, -4.9995600000000007
DataValue, -0.026000000000000002, -4.9995800000000008
DataValue, -0.024, -4.9995600000000007
DataValue, -0.022000000000000002, -4.9995600000000007
DataValue, -0.02, -4.9995600000000007
DataValue, -0.018000000000000002, -4.9995800000000008
DataValue, -0.016, -4.9995800000000008
DataValue, -0.014, -4.9996
DataValue, -0.012, -4.9995800000000008
DataValue, -0.01, -4.95246
DataValue, -0.008, -4.0803600000000007
DataValue, -0.006, -3.1764
DataValue, -0.004, -2.128284
DataValue, -0.002, -1.0483419999999999
DataValue, 0, 0.054742
DataValue, 0.002, 1.141356
DataValue, 0.004, 2.0930239999999998
DataValue, 0.006, 2.9467000000000003
DataValue, 0.008, 3.80528
DataValue, 0.01, 4.64602
DataValue, 0.012, 5.00042
DataValue, 0.014, 5.00042
DataValue, 0.016, 5.00042
DataValue, 0.018000000000000002, 5.0004000000000008
DataValue, 0.02, 5.00042
DataValue, 0.022000000000000002, 5.00042
DataValue, 0.024, 5.00044
DataValue, 0.026000000000000002, 5.00042
DataValue, 0.028, 5.00042
DataValue, 0.030000000000000002, 5.00042
DataValue, 0.032, 5.00042
DataValue, 0.034, 5.00044
DataValue, 0.036000000000000004, 5.00044
DataValue, 0.038000000000000006, 5.00042
DataValue, 0.04, 5.00042
DataValue, 0.042, 5.00042
DataValue, 0.044000000000000004, 5.00042
DataValue, 0.046000000000000006, 5.00042
DataValue, 0.048, 5.00044
DataValue, 0.05, 5.00044
DataValue, 0.052000000000000005, 5.00042
DataValue, 0.054000000000000006, 5.0004000000000008
DataValue, 0.056, 5.00044
DataValue, 0.058, 5.00042
DataValue, 0.060000000000000005, 5.00044
DataValue, 0.062000000000000006, 5.00042
DataValue, 0.064, 5.00044
DataValue, 0.066, 5.00044
DataValue, 0.068, 5.00044
DataValue, 0.07, 5.00042
DataValue, 0.072000000000000008, 5.00042
DataValue, 0.07400000000000001, 5.00044
DataValue, 0.076000000000000012, 5.00044
DataValue, 0.078, 5.00042
DataValue, 0.08, 5.00046
DataValue, 0.082, 5.00042
DataValue, 0.084, 5.00044
DataValue, 0.086000000000000007, 5.00044
DataValue, 0.088000000000000009, 5.00044
DataValue, 0.090000000000000011, 5.00044
DataValue, 0.092000000000000012, 5.00046
DataValue, 0.094000000000000014, 5.00042
DataValue, 0.096, 5.00042
DataValue, 0.098, 5.00042
DataValue, 0.1, 5.00042