
SetupTitle, MOSFET MEAS2
PrimitiveTest, I/V Sweep
TestParameter, Context.MainFrame, 4155B
TestParameter, Channel.UnitType, SMU, SMU, SMU, SMU
TestParameter, Channel.Unit, SMU1:MP, SMU2:MP, SMU3:MP, SMU4:MP
TestParameter, Channel.IName, I1, I2, I3, I4
TestParameter, Channel.VName, V1, V2, V3, V4
TestParameter, Channel.Mode, V, V, V, V
TestParameter, Channel.Func, VAR2, VAR1, CONST, CONST
TestParameter, Channel.Index, 
TestParameter, Channel.Time, 
TestParameter, Measurement.Port.Unit, SMU1:MP, SMU2:MP, SMU3:MP, SMU4:MP
TestParameter, Measurement.Port.SeriesResistor, NONE, NONE, NONE, NONE
TestParameter, Measurement.Port.Filter, ON, ON, ON, ON
TestParameter, Measurement.Primary.Locus, Single
TestParameter, Measurement.Primary.Scale, LINEAR
TestParameter, Measurement.Primary.Start, 0
TestParameter, Measurement.Primary.Stop, 12
TestParameter, Measurement.Primary.Step, 0.05
TestParameter, Measurement.Primary.Compliance, 0.1
TestParameter, Measurement.Primary.PowerCompliance, 0
TestParameter, Measurement.Aborting.Condition, CONTINUE AT ANY
TestParameter, Measurement.PostOutput.Value, START
TestParameter, Measurement.PostOutput.Retention, OFF
TestParameter, Measurement.Secondary.Start, 0
TestParameter, Measurement.Secondary.Count, 3
TestParameter, Measurement.Secondary.Step, -1
TestParameter, Measurement.Secondary.Compliance, 0.1
TestParameter, Measurement.Secondary.PowerCompliance, 0
TestParameter, Measurement.Bias.Source, 0, 0, 0.05, 0
TestParameter, Measurement.Bias.Compliance, 0.1, 0.1, 0.1, 0.1
TestParameter, Measurement.Monitor.Unit, SMU1:MP, SMU2:MP, SMU3:MP, SMU4:MP
TestParameter, Measurement.Monitor.Adc, HR ADC, HR ADC, HR ADC, HR ADC
TestParameter, Measurement.Monitor.RangingMode, LIMITED, LIMITED, LIMITED, LIMITED
TestParameter, Measurement.Monitor.RangeBoundary, 1nA, 1nA, 1nA, 1nA
TestParameter, Measurement.Monitor.RangeRating, BY FULL RANGE, BY FULL RANGE, BY FULL RANGE, BY FULL RANGE
TestParameter, Measurement.Monitor.RangeRatingCoeff, 50, 50, 50, 50
TestParameter, Measurement.Timing.Hold, 0
TestParameter, Measurement.Timing.Delay, 0
TestParameter, Measurement.Adc.HighResolution.AutoZero, OFF
TestParameter, Measurement.Adc.HighResolution.Mode, AUTO
TestParameter, Measurement.Adc.HighResolution.Coeff, 1
TestParameter, Measurement.Ag16440ASelector.SemiconductorRelay.Channel1, DEFAULT
TestParameter, Measurement.Ag16440ASelector.SemiconductorRelay.Channel3, DEFAULT
TestParameter, Output.Graph.Enabled, true
TestParameter, Output.Graph.XAxis.Data, V2
TestParameter, Output.Graph.XAxis.Scale, Linear
TestParameter, Output.Graph.XAxis.Left, 0
TestParameter, Output.Graph.XAxis.Right, 12
TestParameter, Output.Graph.YAxis.Data, I3
TestParameter, Output.Graph.YAxis.Scale, Linear
TestParameter, Output.Graph.YAxis.Bottom, -0.1
TestParameter, Output.Graph.YAxis.Top, 0.1
TestParameter, Output.Graph.YAxis.Group, 
TestParameter, AutoAnalysis.Interpolation, false
TestParameter, AutoAnalysis.Line1.Enabled, false
TestParameter, AutoAnalysis.Line1.Type, 1
TestParameter, AutoAnalysis.Line1.Fix, True
TestParameter, AutoAnalysis.Line1.YAxis, 0
TestParameter, AutoAnalysis.Line1.Point1.Type, 0
TestParameter, AutoAnalysis.Line1.Point1.XY.X, 
TestParameter, AutoAnalysis.Line1.Point1.XY.Y, 
TestParameter, AutoAnalysis.Line1.Point1.Data.Var, 
TestParameter, AutoAnalysis.Line1.Point1.Data.Condition, 
TestParameter, AutoAnalysis.Line1.Point1.Data.Start, false
TestParameter, AutoAnalysis.Line1.Point1.Data.StartVar, 
TestParameter, AutoAnalysis.Line1.Point1.Data.StartCondition, 
TestParameter, AutoAnalysis.Line1.Point2.Type, 0
TestParameter, AutoAnalysis.Line1.Point2.XY.X, 
TestParameter, AutoAnalysis.Line1.Point2.XY.Y, 
TestParameter, AutoAnalysis.Line1.Point2.Data.Var, 
TestParameter, AutoAnalysis.Line1.Point2.Data.Condition, 
TestParameter, AutoAnalysis.Line1.Point2.Data.Start, false
TestParameter, AutoAnalysis.Line1.Point2.Data.StartVar, 
TestParameter, AutoAnalysis.Line1.Point2.Data.StartCondition, 
TestParameter, AutoAnalysis.Line1.GradientExpr, 0
TestParameter, AutoAnalysis.Line2.Enabled, false
TestParameter, AutoAnalysis.Line2.Type, 1
TestParameter, AutoAnalysis.Line2.Fix, True
TestParameter, AutoAnalysis.Line2.YAxis, 0
TestParameter, AutoAnalysis.Line2.Point1.Type, 0
TestParameter, AutoAnalysis.Line2.Point1.XY.X, 
TestParameter, AutoAnalysis.Line2.Point1.XY.Y, 
TestParameter, AutoAnalysis.Line2.Point1.Data.Var, 
TestParameter, AutoAnalysis.Line2.Point1.Data.Condition, 
TestParameter, AutoAnalysis.Line2.Point1.Data.Start, false
TestParameter, AutoAnalysis.Line2.Point1.Data.StartVar, 
TestParameter, AutoAnalysis.Line2.Point1.Data.StartCondition, 
TestParameter, AutoAnalysis.Line2.Point2.Type, 0
TestParameter, AutoAnalysis.Line2.Point2.XY.X, 
TestParameter, AutoAnalysis.Line2.Point2.XY.Y, 
TestParameter, AutoAnalysis.Line2.Point2.Data.Var, 
TestParameter, AutoAnalysis.Line2.Point2.Data.Condition, 
TestParameter, AutoAnalysis.Line2.Point2.Data.Start, false
TestParameter, AutoAnalysis.Line2.Point2.Data.StartVar, 
TestParameter, AutoAnalysis.Line2.Point2.Data.StartCondition, 
TestParameter, AutoAnalysis.Line2.GradientExpr, 0
TestParameter, AutoAnalysis.Marker.Enabled, false
TestParameter, AutoAnalysis.Marker.Data.Var, 
TestParameter, AutoAnalysis.Marker.Data.Condition, 
TestParameter, AutoAnalysis.Marker.Data.Start, false
TestParameter, AutoAnalysis.Marker.Data.StartVar, 
TestParameter, AutoAnalysis.Marker.Data.StartCondition, 
MetaData, TestRecord.EntryPoint, true
MetaData, TestRecord.RecordTime, 04/08/2025 10:48:47
MetaData, TestRecord.TestTarget, 
MetaData, TestRecord.IterationIndex, 1
MetaData, TestRecord.Preservation, true
MetaData, TestRecord.Flag, 
MetaData, TestRecord.Remarks, 8D MEAS2
MetaData, TestRecord.LinkKey, d65de9cd-bad2-4b1d-946e-2c5172c9f127
Dimension1, 241, 241
Dimension2, 3, 3
DataName, V2, I3
DataValue, 0, 1.59747E-07
DataValue, 0.05, 2.65926E-07
DataValue, 0.1, 3.93652E-07
DataValue, 0.15, 5.40218E-07
DataValue, 0.2, 7.02771E-07
DataValue, 0.25, 8.72575E-07
DataValue, 0.3, 1.052438E-06
DataValue, 0.35000000000000003, 1.23362E-06
DataValue, 0.4, 1.4190700000000001E-06
DataValue, 0.45, 1.6102E-06
DataValue, 0.5, 1.8000700000000002E-06
DataValue, 0.55, 1.99382E-06
DataValue, 0.6, 2.1850800000000003E-06
DataValue, 0.65, 2.3767100000000003E-06
DataValue, 0.70000000000000007, 2.5713800000000004E-06
DataValue, 0.75, 2.7625000000000002E-06
DataValue, 0.8, 2.9536800000000005E-06
DataValue, 0.85000000000000009, 3.1455400000000005E-06
DataValue, 0.9, 3.3353700000000003E-06
DataValue, 0.95000000000000007, 3.5267000000000005E-06
DataValue, 1, 3.71427E-06
DataValue, 1.05, 3.90062E-06
DataValue, 1.1, 4.08842E-06
DataValue, 1.1500000000000001, 4.27331E-06
DataValue, 1.2, 4.45949E-06
DataValue, 1.25, 4.64144E-06
DataValue, 1.3, 4.8228100000000005E-06
DataValue, 1.35, 5.0048000000000008E-06
DataValue, 1.4000000000000001, 5.1838700000000009E-06
DataValue, 1.4500000000000002, 5.36471E-06
DataValue, 1.5, 5.5409600000000006E-06
DataValue, 1.55, 5.7162000000000004E-06
DataValue, 1.6, 5.8919300000000007E-06
DataValue, 1.6500000000000001, 6.06547E-06
DataValue, 1.7000000000000002, 6.2399200000000007E-06
DataValue, 1.75, 6.4111300000000007E-06
DataValue, 1.8, 6.5808500000000007E-06
DataValue, 1.85, 6.75128E-06
DataValue, 1.9000000000000001, 6.9198800000000007E-06
DataValue, 1.9500000000000002, 7.0894200000000008E-06
DataValue, 2, 7.2552000000000004E-06
DataValue, 2.05, 7.4199700000000006E-06
DataValue, 2.1, 7.5853800000000005E-06
DataValue, 2.15, 7.7490700000000013E-06
DataValue, 2.2, 7.9109500000000009E-06
DataValue, 2.25, 8.0744E-06
DataValue, 2.3000000000000003, 8.2345E-06
DataValue, 2.35, 8.3952400000000016E-06
DataValue, 2.4, 8.55384E-06
DataValue, 2.45, 8.7116000000000014E-06
DataValue, 2.5, 8.8712E-06
DataValue, 2.5500000000000003, 9.0270200000000015E-06
DataValue, 2.6, 9.1840600000000013E-06
DataValue, 2.65, 9.338580000000001E-06
DataValue, 2.7, 9.4923900000000018E-06
DataValue, 2.75, 9.64784E-06
DataValue, 2.8000000000000003, 9.79975E-06
DataValue, 2.85, 9.9532700000000014E-06
DataValue, 2.9, 1.0104450000000001E-05
DataValue, 2.95, 1.0254620000000001E-05
DataValue, 3, 1.0406160000000001E-05
DataValue, 3.0500000000000003, 1.0554800000000001E-05
DataValue, 3.1, 1.0704850000000001E-05
DataValue, 3.15, 1.085297E-05
DataValue, 3.2, 1.100004E-05
DataValue, 3.25, 1.1148900000000001E-05
DataValue, 3.3000000000000003, 1.1294520000000001E-05
DataValue, 3.35, 1.14367E-05
DataValue, 3.4, 1.15838E-05
DataValue, 3.45, 1.1728E-05
DataValue, 3.5, 1.1874400000000001E-05
DataValue, 3.5500000000000003, 1.20164E-05
DataValue, 3.6, 1.2159500000000001E-05
DataValue, 3.65, 1.2304000000000001E-05
DataValue, 3.7, 1.24455E-05
DataValue, 3.75, 1.25894E-05
DataValue, 3.8000000000000003, 1.273E-05
DataValue, 3.85, 1.28705E-05
DataValue, 3.9, 1.30121E-05
DataValue, 3.95, 1.31518E-05
DataValue, 4, 1.32934E-05
DataValue, 4.05, 1.34318E-05
DataValue, 4.1, 1.3570300000000001E-05
DataValue, 4.15, 1.37098E-05
DataValue, 4.2, 1.38474E-05
DataValue, 4.25, 1.39865E-05
DataValue, 4.3, 1.41228E-05
DataValue, 4.3500000000000005, 1.42589E-05
DataValue, 4.4, 1.43966E-05
DataValue, 4.45, 1.4532200000000001E-05
DataValue, 4.5, 1.4667300000000001E-05
DataValue, 4.55, 1.48035E-05
DataValue, 4.6000000000000005, 1.4938600000000001E-05
DataValue, 4.65, 1.5073700000000001E-05
DataValue, 4.7, 1.5207E-05
DataValue, 4.75, 1.53406E-05
DataValue, 4.8, 1.54745E-05
DataValue, 4.8500000000000005, 1.5607100000000002E-05
DataValue, 4.9, 1.57412E-05
DataValue, 4.95, 1.58733E-05
DataValue, 5, 1.60045E-05
DataValue, 5.05, 1.61369E-05
DataValue, 5.1000000000000005, 1.62684E-05
DataValue, 5.15, 1.6401E-05
DataValue, 5.2, 1.6531E-05
DataValue, 5.25, 1.66606E-05
DataValue, 5.3, 1.67922E-05
DataValue, 5.3500000000000005, 1.69217E-05
DataValue, 5.4, 1.7052000000000002E-05
DataValue, 5.45, 1.71809E-05
DataValue, 5.5, 1.73088E-05
DataValue, 5.55, 1.74391E-05
DataValue, 5.6000000000000005, 1.75667E-05
DataValue, 5.65, 1.76966E-05
DataValue, 5.7, 1.78236E-05
DataValue, 5.75, 1.7951300000000002E-05
DataValue, 5.8, 1.8079E-05
DataValue, 5.8500000000000005, 1.82059E-05
DataValue, 5.9, 1.83325E-05
DataValue, 5.95, 1.846E-05
DataValue, 6, 1.8585E-05
DataValue, 6.05, 1.8713000000000002E-05
DataValue, 6.1000000000000005, 1.8839E-05
DataValue, 6.15, 1.89622E-05
DataValue, 6.2, 1.90891E-05
DataValue, 6.25, 1.92141E-05
DataValue, 6.3, 1.934E-05
DataValue, 6.3500000000000005, 1.94643E-05
DataValue, 6.4, 1.9587600000000002E-05
DataValue, 6.45, 1.97135E-05
DataValue, 6.5, 1.98368E-05
DataValue, 6.55, 1.99622E-05
DataValue, 6.6000000000000005, 2.00854E-05
DataValue, 6.65, 2.02091E-05
DataValue, 6.7, 2.03343E-05
DataValue, 6.75, 2.04562E-05
DataValue, 6.8, 2.05821E-05
DataValue, 6.8500000000000005, 2.0704900000000002E-05
DataValue, 6.9, 2.0828E-05
DataValue, 6.95, 2.09524E-05
DataValue, 7, 2.10759E-05
DataValue, 7.05, 2.11995E-05
DataValue, 7.1000000000000005, 2.13246E-05
DataValue, 7.15, 2.1449E-05
DataValue, 7.2, 2.15757E-05
DataValue, 7.25, 2.1699E-05
DataValue, 7.3, 2.18238E-05
DataValue, 7.3500000000000005, 2.19507E-05
DataValue, 7.4, 2.20751E-05
DataValue, 7.45, 2.22018E-05
DataValue, 7.5, 2.23277E-05
DataValue, 7.55, 2.24526E-05
DataValue, 7.6000000000000005, 2.2580500000000002E-05
DataValue, 7.65, 2.27065E-05
DataValue, 7.7, 2.2835700000000002E-05
DataValue, 7.75, 2.29612E-05
DataValue, 7.8, 2.3089000000000002E-05
DataValue, 7.8500000000000005, 2.32177E-05
DataValue, 7.9, 2.33443E-05
DataValue, 7.95, 2.34733E-05
DataValue, 8, 2.36011E-05
DataValue, 8.05, 2.3728700000000002E-05
DataValue, 8.1, 2.3858600000000002E-05
DataValue, 8.15, 2.3985400000000002E-05
DataValue, 8.2, 2.4115000000000002E-05
DataValue, 8.25, 2.4241900000000002E-05
DataValue, 8.3, 2.43694E-05
DataValue, 8.35, 2.44986E-05
DataValue, 8.4, 2.4626E-05
DataValue, 8.45, 2.4753200000000002E-05
DataValue, 8.5, 2.4882800000000002E-05
DataValue, 8.55, 2.5011200000000002E-05
DataValue, 8.6, 2.51383E-05
DataValue, 8.65, 2.5266000000000002E-05
DataValue, 8.7000000000000011, 2.53924E-05
DataValue, 8.75, 2.55207E-05
DataValue, 8.8, 2.56473E-05
DataValue, 8.85, 2.5776000000000002E-05
DataValue, 8.9, 2.59025E-05
DataValue, 8.9500000000000011, 2.6029700000000003E-05
DataValue, 9, 2.61566E-05
DataValue, 9.05, 2.62825E-05
DataValue, 9.1, 2.6411100000000002E-05
DataValue, 9.15, 2.65367E-05
DataValue, 9.2000000000000011, 2.66622E-05
DataValue, 9.25, 2.67893E-05
DataValue, 9.3, 2.69144E-05
DataValue, 9.35, 2.70419E-05
DataValue, 9.4, 2.7166600000000002E-05
DataValue, 9.4500000000000011, 2.72915E-05
DataValue, 9.5, 2.74178E-05
DataValue, 9.55, 2.75427E-05
DataValue, 9.6, 2.76697E-05
DataValue, 9.65, 2.77933E-05
DataValue, 9.7000000000000011, 2.79166E-05
DataValue, 9.75, 2.80417E-05
DataValue, 9.8, 2.81661E-05
DataValue, 9.85, 2.82912E-05
DataValue, 9.9, 2.84141E-05
DataValue, 9.9500000000000011, 2.8537300000000002E-05
DataValue, 10, 2.8663E-05
DataValue, 10.05, 2.8786300000000003E-05
DataValue, 10.1, 2.8910000000000003E-05
DataValue, 10.15, 2.9035000000000002E-05
DataValue, 10.200000000000001, 2.9158E-05
DataValue, 10.25, 2.9282200000000002E-05
DataValue, 10.3, 2.9404100000000002E-05
DataValue, 10.35, 2.95271E-05
DataValue, 10.4, 2.9651700000000003E-05
DataValue, 10.450000000000001, 2.9773400000000002E-05
DataValue, 10.5, 2.9898900000000003E-05
DataValue, 10.55, 3.002E-05
DataValue, 10.6, 3.0141400000000002E-05
DataValue, 10.65, 3.02646E-05
DataValue, 10.700000000000001, 3.03867E-05
DataValue, 10.75, 3.05093E-05
DataValue, 10.8, 3.0630500000000004E-05
DataValue, 10.85, 3.07512E-05
DataValue, 10.9, 3.08731E-05
DataValue, 10.950000000000001, 3.09939E-05
DataValue, 11, 3.11175E-05
DataValue, 11.05, 3.12369E-05
DataValue, 11.1, 3.13578E-05
DataValue, 11.15, 3.14793E-05
DataValue, 11.200000000000001, 3.1599E-05
DataValue, 11.25, 3.17207E-05
DataValue, 11.3, 3.18409E-05
DataValue, 11.35, 3.19614E-05
DataValue, 11.4, 3.20816E-05
DataValue, 11.450000000000001, 3.22013E-05
DataValue, 11.5, 3.232E-05
DataValue, 11.55, 3.24406E-05
DataValue, 11.6, 3.25596E-05
DataValue, 11.65, 3.2681E-05
DataValue, 11.700000000000001, 3.2798E-05
DataValue, 11.75, 3.29179E-05
DataValue, 11.8, 3.30382E-05
DataValue, 11.85, 3.31564E-05
DataValue, 11.9, 3.32778E-05
DataValue, 11.950000000000001, 3.33948E-05
DataValue, 12, 3.3513400000000003E-05
DataValue, 0, 1.23276E-08
DataValue, 0.05, 5.80509E-09
DataValue, 0.1, 6.77708E-09
DataValue, 0.15, 8.45296E-09
DataValue, 0.2, 1.2404099999999999E-08
DataValue, 0.25, 2.2793299999999997E-08
DataValue, 0.3, 4.82145E-08
DataValue, 0.35000000000000003, 9.7962799999999991E-08
DataValue, 0.4, 1.77015E-07
DataValue, 0.45, 2.87824E-07
DataValue, 0.5, 4.2059899999999997E-07
DataValue, 0.55, 5.72389E-07
DataValue, 0.6, 7.32849E-07
DataValue, 0.65, 9.0183E-07
DataValue, 0.70000000000000007, 1.078842E-06
DataValue, 0.75, 1.2545200000000002E-06
DataValue, 0.8, 1.4345400000000002E-06
DataValue, 0.85000000000000009, 1.6197500000000003E-06
DataValue, 0.9, 1.8029500000000003E-06
DataValue, 0.95000000000000007, 1.9888000000000003E-06
DataValue, 1, 2.17309E-06
DataValue, 1.05, 2.35631E-06
DataValue, 1.1, 2.54253E-06
DataValue, 1.1500000000000001, 2.7253600000000004E-06
DataValue, 1.2, 2.90959E-06
DataValue, 1.25, 3.0912900000000005E-06
DataValue, 1.3, 3.2720100000000005E-06
DataValue, 1.35, 3.4543600000000005E-06
DataValue, 1.4000000000000001, 3.6331200000000005E-06
DataValue, 1.4500000000000002, 3.8129600000000003E-06
DataValue, 1.5, 3.99037E-06
DataValue, 1.55, 4.1662300000000004E-06
DataValue, 1.6, 4.3429400000000006E-06
DataValue, 1.6500000000000001, 4.5164400000000008E-06
DataValue, 1.7000000000000002, 4.6917400000000006E-06
DataValue, 1.75, 4.86406E-06
DataValue, 1.8, 5.03469E-06
DataValue, 1.85, 5.2069100000000008E-06
DataValue, 1.9000000000000001, 5.3757300000000005E-06
DataValue, 1.9500000000000002, 5.5458200000000009E-06
DataValue, 2, 5.7129100000000007E-06
DataValue, 2.05, 5.8787100000000008E-06
DataValue, 2.1, 6.0458700000000004E-06
DataValue, 2.15, 6.20945E-06
DataValue, 2.2, 6.3720800000000007E-06
DataValue, 2.25, 6.5366700000000009E-06
DataValue, 2.3000000000000003, 6.6984700000000008E-06
DataValue, 2.35, 6.8617500000000008E-06
DataValue, 2.4, 7.02093E-06
DataValue, 2.45, 7.1783900000000007E-06
DataValue, 2.5, 7.3387000000000006E-06
DataValue, 2.5500000000000003, 7.4953100000000007E-06
DataValue, 2.6, 7.65362E-06
DataValue, 2.65, 7.8088600000000013E-06
DataValue, 2.7, 7.96284E-06
DataValue, 2.75, 8.118850000000001E-06
DataValue, 2.8000000000000003, 8.2717E-06
DataValue, 2.85, 8.425840000000001E-06
DataValue, 2.9, 8.57748E-06
DataValue, 2.95, 8.7279700000000014E-06
DataValue, 3, 8.8801000000000016E-06
DataValue, 3.0500000000000003, 9.02945E-06
DataValue, 3.1, 9.18039E-06
DataValue, 3.15, 9.3277E-06
DataValue, 3.2, 9.47467E-06
DataValue, 3.25, 9.62336E-06
DataValue, 3.3000000000000003, 9.76931E-06
DataValue, 3.35, 9.9141900000000017E-06
DataValue, 3.4, 1.0061040000000002E-05
DataValue, 3.45, 1.0205070000000001E-05
DataValue, 3.5, 1.0350350000000002E-05
DataValue, 3.5500000000000003, 1.049314E-05
DataValue, 3.6, 1.0635620000000002E-05
DataValue, 3.65, 1.0779000000000001E-05
DataValue, 3.7, 1.092051E-05
DataValue, 3.75, 1.1062860000000001E-05
DataValue, 3.8000000000000003, 1.1203200000000001E-05
DataValue, 3.85, 1.134272E-05
DataValue, 3.9, 1.1481E-05
DataValue, 3.95, 1.16198E-05
DataValue, 4, 1.17597E-05
DataValue, 4.05, 1.18965E-05
DataValue, 4.1, 1.20341E-05
DataValue, 4.15, 1.21724E-05
DataValue, 4.2, 1.23091E-05
DataValue, 4.25, 1.2446900000000001E-05
DataValue, 4.3, 1.2582100000000001E-05
DataValue, 4.3500000000000005, 1.2717E-05
DataValue, 4.4, 1.28524E-05
DataValue, 4.45, 1.29872E-05
DataValue, 4.5, 1.31208E-05
DataValue, 4.55, 1.32562E-05
DataValue, 4.6000000000000005, 1.3388700000000001E-05
DataValue, 4.65, 1.3522400000000001E-05
DataValue, 4.7, 1.3654500000000001E-05
DataValue, 4.75, 1.37864E-05
DataValue, 4.8, 1.39201E-05
DataValue, 4.8500000000000005, 1.4050100000000001E-05
DataValue, 4.9, 1.4183000000000001E-05
DataValue, 4.95, 1.43139E-05
DataValue, 5, 1.44435E-05
DataValue, 5.05, 1.45757E-05
DataValue, 5.1000000000000005, 1.47046E-05
DataValue, 5.15, 1.4835100000000001E-05
DataValue, 5.2, 1.49631E-05
DataValue, 5.25, 1.50909E-05
DataValue, 5.3, 1.52203E-05
DataValue, 5.3500000000000005, 1.53474E-05
DataValue, 5.4, 1.54763E-05
DataValue, 5.45, 1.56032E-05
DataValue, 5.5, 1.5729200000000002E-05
DataValue, 5.55, 1.58574E-05
DataValue, 5.6000000000000005, 1.59814E-05
DataValue, 5.65, 1.611E-05
DataValue, 5.7, 1.62354E-05
DataValue, 5.75, 1.63601E-05
DataValue, 5.8, 1.6487E-05
DataValue, 5.8500000000000005, 1.66106E-05
DataValue, 5.9, 1.67348E-05
DataValue, 5.95, 1.686E-05
DataValue, 6, 1.6982500000000002E-05
DataValue, 6.05, 1.71073E-05
DataValue, 6.1000000000000005, 1.72301E-05
DataValue, 6.15, 1.73528E-05
DataValue, 6.2, 1.74763E-05
DataValue, 6.25, 1.75984E-05
DataValue, 6.3, 1.77219E-05
DataValue, 6.3500000000000005, 1.78429E-05
DataValue, 6.4, 1.79642E-05
DataValue, 6.45, 1.80863E-05
DataValue, 6.5, 1.8207800000000002E-05
DataValue, 6.55, 1.83295E-05
DataValue, 6.6000000000000005, 1.84492E-05
DataValue, 6.65, 1.8569400000000002E-05
DataValue, 6.7, 1.86904E-05
DataValue, 6.75, 1.88099E-05
DataValue, 6.8, 1.89305E-05
DataValue, 6.8500000000000005, 1.90489E-05
DataValue, 6.9, 1.91683E-05
DataValue, 6.95, 1.92887E-05
DataValue, 7, 1.94064E-05
DataValue, 7.05, 1.95252E-05
DataValue, 7.1000000000000005, 1.96444E-05
DataValue, 7.15, 1.97617E-05
DataValue, 7.2, 1.98809E-05
DataValue, 7.25, 1.99983E-05
DataValue, 7.3, 2.01151E-05
