
SetupTitle, MOSFET MEAS1
PrimitiveTest, I/V Sweep
TestParameter, Context.MainFrame, 4155B
TestParameter, Channel.UnitType, SMU, SMU, SMU, SMU
TestParameter, Channel.Unit, SMU1:MP, SMU2:MP, SMU3:MP, SMU4:MP
TestParameter, Channel.IName, I1, I2, I3, I4
TestParameter, Channel.VName, V1, V2, V3, V4
TestParameter, Channel.Mode, V, V, V, V
TestParameter, Channel.Func, CONST, VAR2, VAR1, CONST
TestParameter, Channel.Index, 
TestParameter, Channel.Time, 
TestParameter, Measurement.Port.Unit, SMU1:MP, SMU2:MP, SMU3:MP, SMU4:MP
TestParameter, Measurement.Port.SeriesResistor, NONE, NONE, NONE, NONE
TestParameter, Measurement.Port.Filter, ON, ON, ON, ON
TestParameter, Measurement.Primary.Locus, Single
TestParameter, Measurement.Primary.Scale, LINEAR
TestParameter, Measurement.Primary.Start, 0
TestParameter, Measurement.Primary.Stop, 5
TestParameter, Measurement.Primary.Step, 0.05
TestParameter, Measurement.Primary.Compliance, 0.1
TestParameter, Measurement.Primary.PowerCompliance, 0
TestParameter, Measurement.Aborting.Condition, CONTINUE AT ANY
TestParameter, Measurement.PostOutput.Value, START
TestParameter, Measurement.PostOutput.Retention, OFF
TestParameter, Measurement.Secondary.Start, 0
TestParameter, Measurement.Secondary.Count, 6
TestParameter, Measurement.Secondary.Step, 1
TestParameter, Measurement.Secondary.Compliance, 0.1
TestParameter, Measurement.Secondary.PowerCompliance, 0
TestParameter, Measurement.Bias.Source, 0, 0, 0, 0
TestParameter, Measurement.Bias.Compliance, 0.1, 0.1, 0.1, 0.1
TestParameter, Measurement.Monitor.Unit, SMU1:MP, SMU2:MP, SMU3:MP, SMU4:MP
TestParameter, Measurement.Monitor.Adc, HR ADC, HR ADC, HR ADC, HR ADC
TestParameter, Measurement.Monitor.RangingMode, LIMITED, LIMITED, LIMITED, LIMITED
TestParameter, Measurement.Monitor.RangeBoundary, 1nA, 1nA, 1nA, 1nA
TestParameter, Measurement.Monitor.RangeRating, BY FULL RANGE, BY FULL RANGE, BY FULL RANGE, BY FULL RANGE
TestParameter, Measurement.Monitor.RangeRatingCoeff, 50, 50, 50, 50
TestParameter, Measurement.Timing.Hold, 0
TestParameter, Measurement.Timing.Delay, 0
TestParameter, Measurement.Adc.HighResolution.AutoZero, OFF
TestParameter, Measurement.Adc.HighResolution.Mode, AUTO
TestParameter, Measurement.Adc.HighResolution.Coeff, 1
TestParameter, Measurement.Ag16440ASelector.SemiconductorRelay.Channel1, DEFAULT
TestParameter, Measurement.Ag16440ASelector.SemiconductorRelay.Channel3, DEFAULT
TestParameter, Output.Graph.Enabled, true
TestParameter, Output.Graph.XAxis.Data, V3
TestParameter, Output.Graph.XAxis.Scale, Linear
TestParameter, Output.Graph.XAxis.Left, 0
TestParameter, Output.Graph.XAxis.Right, 5
TestParameter, Output.Graph.YAxis.Data, I3
TestParameter, Output.Graph.YAxis.Scale, Linear
TestParameter, Output.Graph.YAxis.Bottom, -0.1
TestParameter, Output.Graph.YAxis.Top, 0.1
TestParameter, Output.Graph.YAxis.Group, 
TestParameter, AutoAnalysis.Interpolation, false
TestParameter, AutoAnalysis.Line1.Enabled, false
TestParameter, AutoAnalysis.Line1.Type, 1
TestParameter, AutoAnalysis.Line1.Fix, True
TestParameter, AutoAnalysis.Line1.YAxis, 0
TestParameter, AutoAnalysis.Line1.Point1.Type, 0
TestParameter, AutoAnalysis.Line1.Point1.XY.X, 
TestParameter, AutoAnalysis.Line1.Point1.XY.Y, 
TestParameter, AutoAnalysis.Line1.Point1.Data.Var, 
TestParameter, AutoAnalysis.Line1.Point1.Data.Condition, 
TestParameter, AutoAnalysis.Line1.Point1.Data.Start, false
TestParameter, AutoAnalysis.Line1.Point1.Data.StartVar, 
TestParameter, AutoAnalysis.Line1.Point1.Data.StartCondition, 
TestParameter, AutoAnalysis.Line1.Point2.Type, 0
TestParameter, AutoAnalysis.Line1.Point2.XY.X, 
TestParameter, AutoAnalysis.Line1.Point2.XY.Y, 
TestParameter, AutoAnalysis.Line1.Point2.Data.Var, 
TestParameter, AutoAnalysis.Line1.Point2.Data.Condition, 
TestParameter, AutoAnalysis.Line1.Point2.Data.Start, false
TestParameter, AutoAnalysis.Line1.Point2.Data.StartVar, 
TestParameter, AutoAnalysis.Line1.Point2.Data.StartCondition, 
TestParameter, AutoAnalysis.Line1.GradientExpr, 0
TestParameter, AutoAnalysis.Line2.Enabled, false
TestParameter, AutoAnalysis.Line2.Type, 1
TestParameter, AutoAnalysis.Line2.Fix, True
TestParameter, AutoAnalysis.Line2.YAxis, 0
TestParameter, AutoAnalysis.Line2.Point1.Type, 0
TestParameter, AutoAnalysis.Line2.Point1.XY.X, 
TestParameter, AutoAnalysis.Line2.Point1.XY.Y, 
TestParameter, AutoAnalysis.Line2.Point1.Data.Var, 
TestParameter, AutoAnalysis.Line2.Point1.Data.Condition, 
TestParameter, AutoAnalysis.Line2.Point1.Data.Start, false
TestParameter, AutoAnalysis.Line2.Point1.Data.StartVar, 
TestParameter, AutoAnalysis.Line2.Point1.Data.StartCondition, 
TestParameter, AutoAnalysis.Line2.Point2.Type, 0
TestParameter, AutoAnalysis.Line2.Point2.XY.X, 
TestParameter, AutoAnalysis.Line2.Point2.XY.Y, 
TestParameter, AutoAnalysis.Line2.Point2.Data.Var, 
TestParameter, AutoAnalysis.Line2.Point2.Data.Condition, 
TestParameter, AutoAnalysis.Line2.Point2.Data.Start, false
TestParameter, AutoAnalysis.Line2.Point2.Data.StartVar, 
TestParameter, AutoAnalysis.Line2.Point2.Data.StartCondition, 
TestParameter, AutoAnalysis.Line2.GradientExpr, 0
TestParameter, AutoAnalysis.Marker.Enabled, false
TestParameter, AutoAnalysis.Marker.Data.Var, 
TestParameter, AutoAnalysis.Marker.Data.Condition, 
TestParameter, AutoAnalysis.Marker.Data.Start, false
TestParameter, AutoAnalysis.Marker.Data.StartVar, 
TestParameter, AutoAnalysis.Marker.Data.StartCondition, 
MetaData, TestRecord.EntryPoint, true
MetaData, TestRecord.RecordTime, 04/08/2025 10:54:24
MetaData, TestRecord.TestTarget, 
MetaData, TestRecord.IterationIndex, 2
MetaData, TestRecord.Preservation, true
MetaData, TestRecord.Flag, 
MetaData, TestRecord.Remarks, 9B MEAS1
MetaData, TestRecord.LinkKey, d96428b1-5620-4fb1-b17d-397c7881d12c
Dimension1, 101, 101
Dimension2, 6, 6
DataName, V3, I3
DataValue, 0, 1.08118E-09
DataValue, 0.05, 4.0748099999999994E-08
DataValue, 0.1, 5.3468999999999994E-08
DataValue, 0.15, 5.6587099999999995E-08
DataValue, 0.2, 5.7358699999999995E-08
DataValue, 0.25, 5.7665399999999996E-08
DataValue, 0.3, 5.78096E-08
DataValue, 0.35000000000000003, 5.79967E-08
DataValue, 0.4, 5.8069599999999995E-08
DataValue, 0.45, 5.88547E-08
DataValue, 0.5, 5.8703899999999995E-08
DataValue, 0.55, 6.1912999999999993E-08
DataValue, 0.6, 5.86589E-08
DataValue, 0.65, 5.96498E-08
DataValue, 0.70000000000000007, 5.9107699999999993E-08
DataValue, 0.75, 5.993529999999999E-08
DataValue, 0.8, 5.9056899999999992E-08
DataValue, 0.85000000000000009, 5.9019399999999996E-08
DataValue, 0.9, 5.9557299999999992E-08
DataValue, 0.95000000000000007, 5.98579E-08
DataValue, 1, 6.172079999999999E-08
DataValue, 1.05, 6.08672E-08
DataValue, 1.1, 6.358119999999999E-08
DataValue, 1.1500000000000001, 6.17035E-08
DataValue, 1.2, 6.14138E-08
DataValue, 1.25, 6.1452599999999993E-08
DataValue, 1.3, 6.13673E-08
DataValue, 1.35, 6.0890599999999991E-08
DataValue, 1.4000000000000001, 6.0675699999999991E-08
DataValue, 1.4500000000000002, 6.16084E-08
DataValue, 1.5, 6.0383499999999993E-08
DataValue, 1.55, 6.0649999999999991E-08
DataValue, 1.6, 6.00334E-08
DataValue, 1.6500000000000001, 6.0937599999999991E-08
DataValue, 1.7000000000000002, 6.01814E-08
DataValue, 1.75, 6.02286E-08
DataValue, 1.8, 6.03087E-08
DataValue, 1.85, 6.0335199999999988E-08
DataValue, 1.9000000000000001, 6.03917E-08
DataValue, 1.9500000000000002, 6.04124E-08
DataValue, 2, 6.080149999999999E-08
DataValue, 2.05, 6.05103E-08
DataValue, 2.1, 6.07044E-08
DataValue, 2.15, 6.0622299999999988E-08
DataValue, 2.2, 6.098E-08
DataValue, 2.25, 6.08156E-08
DataValue, 2.3000000000000003, 6.12109E-08
DataValue, 2.35, 6.12442E-08
DataValue, 2.4, 6.19343E-08
DataValue, 2.45, 6.1788399999999992E-08
DataValue, 2.5, 6.0993399999999991E-08
DataValue, 2.5500000000000003, 6.2279E-08
DataValue, 2.6, 6.1310399999999993E-08
DataValue, 2.65, 6.12072E-08
DataValue, 2.7, 6.11516E-08
DataValue, 2.75, 6.19534E-08
DataValue, 2.8000000000000003, 6.1252299999999988E-08
DataValue, 2.85, 6.12302E-08
DataValue, 2.9, 6.1240399999999993E-08
DataValue, 2.95, 6.12442E-08
DataValue, 3, 6.1260199999999992E-08
DataValue, 3.0500000000000003, 6.13256E-08
DataValue, 3.1, 6.1778299999999989E-08
DataValue, 3.15, 6.13459E-08
DataValue, 3.2, 6.2177999999999989E-08
DataValue, 3.25, 6.1424199999999992E-08
DataValue, 3.3000000000000003, 6.2137899999999992E-08
DataValue, 3.35, 6.1580299999999989E-08
DataValue, 3.4, 6.1720299999999989E-08
DataValue, 3.45, 6.17547E-08
DataValue, 3.5, 6.176339999999999E-08
DataValue, 3.5500000000000003, 6.18945E-08
DataValue, 3.6, 6.17549E-08
DataValue, 3.65, 6.26687E-08
DataValue, 3.7, 6.1694E-08
DataValue, 3.75, 6.17386E-08
DataValue, 3.8000000000000003, 6.1763899999999991E-08
DataValue, 3.85, 6.21872E-08
DataValue, 3.9, 6.1899199999999988E-08
DataValue, 3.95, 6.1855899999999989E-08
DataValue, 4, 6.1921799999999993E-08
DataValue, 4.05, 6.23346E-08
DataValue, 4.1, 6.1944799999999992E-08
DataValue, 4.15, 6.19285E-08
DataValue, 4.2, 6.29021E-08
DataValue, 4.25, 6.1979499999999989E-08
DataValue, 4.3, 6.20257E-08
DataValue, 4.3500000000000005, 6.2072999999999989E-08
DataValue, 4.4, 6.20469E-08
DataValue, 4.45, 6.20986E-08
DataValue, 4.5, 6.21052E-08
DataValue, 4.55, 6.21378E-08
DataValue, 4.6000000000000005, 6.218829999999999E-08
DataValue, 4.65, 6.22139E-08
DataValue, 4.7, 6.2196E-08
DataValue, 4.75, 6.2627099999999988E-08
DataValue, 4.8, 6.2256599999999991E-08
DataValue, 4.8500000000000005, 6.22844E-08
DataValue, 4.9, 6.2292299999999989E-08
DataValue, 4.95, 6.23111E-08
DataValue, 5, 6.23612E-08
DataValue, 0, -9.0432999999999983E-09
DataValue, 0.05, 1.3833400000000002E-06
DataValue, 0.1, 2.6793000000000003E-06
DataValue, 0.15, 3.84077E-06
DataValue, 0.2, 4.90713E-06
DataValue, 0.25, 5.84573E-06
DataValue, 0.3, 6.6772000000000011E-06
DataValue, 0.35000000000000003, 7.4142800000000006E-06
DataValue, 0.4, 8.0384600000000016E-06
DataValue, 0.45, 8.57128E-06
DataValue, 0.5, 9.00284E-06
DataValue, 0.55, 9.3523200000000016E-06
DataValue, 0.6, 9.6165100000000009E-06
DataValue, 0.65, 9.81188E-06
DataValue, 0.70000000000000007, 9.95212E-06
DataValue, 0.75, 1.0045820000000001E-05
DataValue, 0.8, 1.0108590000000001E-05
DataValue, 0.85000000000000009, 1.015253E-05
DataValue, 0.9, 1.0184170000000001E-05
DataValue, 0.95000000000000007, 1.0207850000000001E-05
DataValue, 1, 1.022794E-05
DataValue, 1.05, 1.02449E-05
DataValue, 1.1, 1.0260260000000001E-05
DataValue, 1.1500000000000001, 1.0275420000000001E-05
DataValue, 1.2, 1.028839E-05
DataValue, 1.25, 1.0301120000000002E-05
DataValue, 1.3, 1.0313050000000001E-05
DataValue, 1.35, 1.032457E-05
DataValue, 1.4000000000000001, 1.0335410000000002E-05
DataValue, 1.4500000000000002, 1.034721E-05
DataValue, 1.5, 1.0356430000000002E-05
DataValue, 1.55, 1.0366110000000001E-05
DataValue, 1.6, 1.0375990000000001E-05
DataValue, 1.6500000000000001, 1.0385770000000001E-05
DataValue, 1.7000000000000002, 1.039492E-05
DataValue, 1.75, 1.0404150000000001E-05
DataValue, 1.8, 1.0413160000000001E-05
DataValue, 1.85, 1.0421030000000001E-05
DataValue, 1.9000000000000001, 1.0430050000000002E-05
DataValue, 1.9500000000000002, 1.0439070000000001E-05
DataValue, 2, 1.044737E-05
DataValue, 2.05, 1.0454840000000001E-05
DataValue, 2.1, 1.0463420000000002E-05
DataValue, 2.15, 1.0471290000000002E-05
DataValue, 2.2, 1.047907E-05
DataValue, 2.25, 1.0486850000000001E-05
DataValue, 2.3000000000000003, 1.049399E-05
DataValue, 2.35, 1.050161E-05
DataValue, 2.4, 1.0508620000000001E-05
DataValue, 2.45, 1.0516130000000001E-05
DataValue, 2.5, 1.0522670000000001E-05
DataValue, 2.5500000000000003, 1.0529930000000001E-05
DataValue, 2.6, 1.0536430000000002E-05
DataValue, 2.65, 1.0543380000000002E-05
DataValue, 2.7, 1.055075E-05
DataValue, 2.75, 1.0557810000000002E-05
DataValue, 2.8000000000000003, 1.0564170000000001E-05
DataValue, 2.85, 1.0571030000000001E-05
DataValue, 2.9, 1.057799E-05
DataValue, 2.95, 1.0584100000000001E-05
DataValue, 3, 1.0590670000000001E-05
DataValue, 3.0500000000000003, 1.0596320000000002E-05
DataValue, 3.1, 1.06026E-05
DataValue, 3.15, 1.0608830000000001E-05
DataValue, 3.2, 1.061548E-05
DataValue, 3.25, 1.06211E-05
DataValue, 3.3000000000000003, 1.062839E-05
DataValue, 3.35, 1.0632450000000002E-05
DataValue, 3.4, 1.0638860000000001E-05
DataValue, 3.45, 1.0644940000000002E-05
DataValue, 3.5, 1.0651180000000001E-05
DataValue, 3.5500000000000003, 1.065742E-05
DataValue, 3.6, 1.066294E-05
DataValue, 3.65, 1.066788E-05
DataValue, 3.7, 1.0673440000000001E-05
DataValue, 3.75, 1.0679880000000001E-05
DataValue, 3.8000000000000003, 1.068464E-05
DataValue, 3.85, 1.0690950000000001E-05
DataValue, 3.9, 1.069566E-05
DataValue, 3.95, 1.070087E-05
DataValue, 4, 1.0706450000000002E-05
DataValue, 4.05, 1.0712380000000001E-05
DataValue, 4.1, 1.0717180000000002E-05
DataValue, 4.15, 1.0722680000000002E-05
DataValue, 4.2, 1.0728100000000002E-05
DataValue, 4.25, 1.073271E-05
DataValue, 4.3, 1.0737790000000002E-05
DataValue, 4.3500000000000005, 1.0742550000000001E-05
DataValue, 4.4, 1.074802E-05
DataValue, 4.45, 1.0753380000000001E-05
DataValue, 4.5, 1.0757830000000001E-05
DataValue, 4.55, 1.076269E-05
DataValue, 4.6000000000000005, 1.0767650000000002E-05
DataValue, 4.65, 1.077298E-05
DataValue, 4.7, 1.0777880000000001E-05
DataValue, 4.75, 1.0783000000000002E-05
DataValue, 4.8, 1.0787720000000002E-05
DataValue, 4.8500000000000005, 1.07926E-05
DataValue, 4.9, 1.079674E-05
DataValue, 4.95, 1.0802120000000001E-05
DataValue, 5, 1.0807140000000001E-05
DataValue, 0, -1.8865999999999998E-08
DataValue, 0.05, 2.8095600000000003E-06
DataValue, 0.1, 5.566260000000001E-06
DataValue, 0.15, 8.16744E-06
DataValue, 0.2, 1.0698440000000002E-05
DataValue, 0.25, 1.30817E-05
DataValue, 0.3, 1.53562E-05
DataValue, 0.35000000000000003, 1.7558800000000002E-05
DataValue, 0.4, 1.96242E-05
DataValue, 0.45, 2.16154E-05
DataValue, 0.5, 2.34733E-05
DataValue, 0.55, 2.5256900000000002E-05
DataValue, 0.6, 2.69126E-05
DataValue, 0.65, 2.8467900000000002E-05
DataValue, 0.70000000000000007, 2.99439E-05
DataValue, 0.75, 3.12996E-05
DataValue, 0.8, 3.25769E-05
DataValue, 0.85000000000000009, 3.3739500000000005E-05
DataValue, 0.9, 3.4823E-05
DataValue, 0.95000000000000007, 3.5799E-05
DataValue, 1, 3.66826E-05
DataValue, 1.05, 3.74898E-05
DataValue, 1.1, 3.81967E-05
DataValue, 1.1500000000000001, 3.88313E-05
DataValue, 1.2, 3.93771E-05
DataValue, 1.25, 3.98524E-05
DataValue, 1.3, 4.02513E-05
DataValue, 1.35, 4.05857E-05
DataValue, 1.4000000000000001, 4.0868600000000004E-05
DataValue, 1.4500000000000002, 4.1097400000000004E-05
DataValue, 1.5, 4.12855E-05
DataValue, 1.55, 4.1436E-05
DataValue, 1.6, 4.15605E-05
DataValue, 1.6500000000000001, 4.1665E-05
DataValue, 1.7000000000000002, 4.17509E-05
DataValue, 1.75, 4.1826800000000004E-05
DataValue, 1.8, 4.18929E-05
DataValue, 1.85, 4.1953300000000004E-05
DataValue, 1.9000000000000001, 4.20085E-05
DataValue, 1.9500000000000002, 4.20594E-05
DataValue, 2, 4.21069E-05
DataValue, 2.05, 4.21532E-05
DataValue, 2.1, 4.21963E-05
DataValue, 2.15, 4.2237600000000004E-05
DataValue, 2.2, 4.22762E-05
DataValue, 2.25, 4.23164E-05
DataValue, 2.3000000000000003, 4.23542E-05
DataValue, 2.35, 4.23915E-05
DataValue, 2.4, 4.2429200000000004E-05
DataValue, 2.45, 4.24642E-05
DataValue, 2.5, 4.24993E-05
DataValue, 2.5500000000000003, 4.2534800000000005E-05
DataValue, 2.6, 4.25681E-05
DataValue, 2.65, 4.26008E-05
DataValue, 2.7, 4.26343E-05
DataValue, 2.75, 4.26661E-05
DataValue, 2.8000000000000003, 4.26976E-05
DataValue, 2.85, 4.2729200000000004E-05
DataValue, 2.9, 4.2759900000000004E-05
DataValue, 2.95, 4.27898E-05
DataValue, 3, 4.2821E-05
DataValue, 3.0500000000000003, 4.28501E-05
DataValue, 3.1, 4.28794E-05
DataValue, 3.15, 4.29089E-05
DataValue, 3.2, 4.29372E-05
DataValue, 3.25, 4.29655E-05
DataValue, 3.3000000000000003, 4.29938E-05
DataValue, 3.35, 4.30208E-05
DataValue, 3.4, 4.30494E-05
DataValue, 3.45, 4.30759E-05
DataValue, 3.5, 4.3104E-05
DataValue, 3.5500000000000003, 4.31305E-05
DataValue, 3.6, 4.31582E-05
DataValue, 3.65, 4.31831E-05
DataValue, 3.7, 4.32088E-05
DataValue, 3.75, 4.3236200000000005E-05
DataValue, 3.8000000000000003, 4.3260800000000004E-05
DataValue, 3.85, 4.32877E-05
DataValue, 3.9, 4.33129E-05
DataValue, 3.95, 4.33362E-05
DataValue, 4, 4.33623E-05
DataValue, 4.05, 4.33882E-05
DataValue, 4.1, 4.3412500000000005E-05
DataValue, 4.15, 4.3436800000000004E-05
DataValue, 4.2, 4.34602E-05
DataValue, 4.25, 4.34852E-05
DataValue, 4.3, 4.35084E-05
DataValue, 4.3500000000000005, 4.35332E-05
DataValue, 4.4, 4.35558E-05
DataValue, 4.45, 4.35795E-05
DataValue, 4.5, 4.36027E-05
DataValue, 4.55, 4.36272E-05
DataValue, 4.6000000000000005, 4.36484E-05
DataValue, 4.65, 4.36711E-05
DataValue, 4.7, 4.36953E-05
DataValue, 4.75, 4.3719E-05
DataValue, 4.8, 4.37417E-05
DataValue, 4.8500000000000005, 4.37649E-05
DataValue, 4.9, 4.37869E-05
DataValue, 4.95, 4.38096E-05
DataValue, 5, 4.38314E-05
DataValue, 0, -3.06703E-08
DataValue, 0.05, 4.13007E-06
DataValue, 0.1, 8.24235E-06
DataValue, 0.15, 1.2181100000000001E-05
DataValue, 0.2, 1.60699E-05
DataValue, 0.25, 1.97892E-05
DataValue, 0.3, 2.3399700000000002E-05
DataValue, 0.35000000000000003, 2.69574E-05
DataValue, 0.4, 3.03613E-05
DataValue, 0.45, 3.37077E-05
DataValue, 0.5, 3.69051E-05
DataValue, 0.55, 4.00543E-05
DataValue, 0.6, 4.3059E-05
DataValue, 0.65, 4.59628E-05
DataValue, 0.70000000000000007, 4.8817100000000004E-05
DataValue, 0.75, 5.1533500000000004E-05
DataValue, 0.8, 5.41891E-05
DataValue, 0.85000000000000009, 5.67142E-05
DataValue, 0.9, 5.91804E-05
DataValue, 0.95000000000000007, 6.1520400000000008E-05
DataValue, 1, 6.37664E-05
DataValue, 1.05, 6.59492E-05
DataValue, 1.1, 6.80082E-05
DataValue, 1.1500000000000001, 7.00074E-05
DataValue, 1.2, 7.18839E-05
DataValue, 1.25, 7.36971E-05
DataValue, 1.3, 7.53937E-05
DataValue, 1.35, 7.6999500000000007E-05
DataValue, 1.4000000000000001, 7.85437E-05
DataValue, 1.4500000000000002, 7.9976000000000008E-05
DataValue, 1.5, 8.13398E-05
DataValue, 1.55, 8.25954E-05
DataValue, 1.6, 8.37705E-05
DataValue, 1.6500000000000001, 8.4877200000000008E-05
DataValue, 1.7000000000000002, 8.58862E-05
DataValue, 1.75, 8.68299E-05
DataValue, 1.8, 8.7686500000000008E-05
DataValue, 1.85, 8.84714E-05
DataValue, 1.9000000000000001, 8.91776E-05
DataValue, 1.9500000000000002, 8.9815200000000007E-05
DataValue, 2, 9.03919E-05
DataValue, 2.05, 9.08975E-05
DataValue, 2.1, 9.13536E-05
DataValue, 2.15, 9.17478E-05
DataValue, 2.2, 9.2099100000000007E-05
DataValue, 2.25, 9.24022E-05
DataValue, 2.3000000000000003, 9.26668E-05
DataValue, 2.35, 9.29013E-05
DataValue, 2.4, 9.31048E-05
DataValue, 2.45, 9.32877E-05
DataValue, 2.5, 9.34472E-05
DataValue, 2.5500000000000003, 9.3595700000000009E-05
DataValue, 2.6, 9.37271E-05
DataValue, 2.65, 9.38465E-05
DataValue, 2.7, 9.39582E-05
DataValue, 2.75, 9.40659E-05
DataValue, 2.8000000000000003, 9.41675E-05
DataValue, 2.85, 9.4260200000000009E-05
DataValue, 2.9, 9.4352600000000009E-05
DataValue, 2.95, 9.44403E-05
DataValue, 3, 9.45266E-05
DataValue, 3.0500000000000003, 9.46107E-05
DataValue, 3.1, 9.46935E-05
DataValue, 3.15, 9.4773200000000009E-05
DataValue, 3.2, 9.48506E-05
DataValue, 3.25, 9.49267E-05
DataValue, 3.3000000000000003, 9.50024E-05
DataValue, 3.35, 9.50753E-05
DataValue, 3.4, 9.5149600000000008E-05
DataValue, 3.45, 9.52193E-05
DataValue, 3.5, 9.52898E-05
DataValue, 3.5500000000000003, 9.53593E-05
DataValue, 3.6, 9.54266E-05
DataValue, 3.65, 9.5495400000000007E-05
DataValue, 3.7, 9.5560500000000008E-05
DataValue, 3.75, 9.562950000000001E-05
DataValue, 3.8000000000000003, 9.5693800000000009E-05
DataValue, 3.85, 9.57594E-05
